(1538191419.132575) can0 053#0080005403063655
(1538191419.133914) can0 00C#0078063643
(1538191419.134192) can0 0C7#FFFFFFF1E2063643
(1538191419.135006) can0 0C8#0000000FE3063644
(1538191419.135905) can0 0C9#00000000E4063645
(1538191419.136736) can0 0A0#E96301000001
(1538191419.136970) can0 0C3#007B02F5E5063645
(1538191419.137657) can0 0C4#02EE02BAE6063646
(1538191419.138519) can0 0A1#5A5A79063647
(1538191419.142506) can0 053#007900560406365F
(1538191419.143923) can0 0CA#00007A06364D
(1538191419.144834) can0 0CB#00007B06364E
(1538191419.145687) can0 0CC#00007C06364E
(1538191419.146572) can0 050#00000837E706364F
(1538191419.146759) can0 0A0#E96301000001
(1538191419.147429) can0 051#00000786E8063650
(1538191419.152573) can0 053#0076005805063669
(1538191419.153986) can0 0C7#00000000E9063657
(1538191419.154864) can0 0C8#0000000FEA063658
(1538191419.155773) can0 0C9#00000000EB063658
(1538191419.156564) can0 052#0000EC063659
(1538191419.156775) can0 0A0#E96301000001
(1538191419.162563) can0 053#007F005A06063673
(1538191419.163916) can0 0CA#00007D063661
(1538191419.164821) can0 0CB#00007E063662
(1538191419.165714) can0 0CC#00007F063662
(1538191419.166490) can0 0A0#E96301000001
(1538191419.166689) can0 0C1#000080063663
(1538191419.167395) can0 0C2#000081063664
(1538191419.172553) can0 053#0086005C0706367D
(1538191419.173994) can0 0C7#00000000ED06366B
(1538191419.174907) can0 0C8#0000000FEE06366C
(1538191419.175797) can0 0C9#00000000EF06366C
(1538191419.176656) can0 0C3#000A0305F006366D
(1538191419.177131) can0 0A0#E96301000001
(1538191419.177536) can0 0C4#02F402BCF106366E
(1538191419.182553) can0 053#008C005E08063687
(1538191419.183932) can0 0CA#FFF782063675
(1538191419.184819) can0 0CB#000083063676
(1538191419.185698) can0 0CC#000084063676
(1538191419.186342) can0 0A0#E96301000001
(1538191419.186586) can0 050#00000837F2063677
(1538191419.187441) can0 051#00000786F3063678
(1538191419.192596) can0 053#0090006009063691
(1538191419.193986) can0 0C7#00000000F406367F
(1538191419.194859) can0 0C8#0000000FF5063680
(1538191419.195766) can0 0C9#00000000F6063680
(1538191419.196577) can0 052#0000F7063681
(1538191419.196954) can0 0A0#E96301000001
(1538191419.202542) can0 053#009300620A06369B
(1538191419.203906) can0 0CA#000085063689
(1538191419.204804) can0 0CB#00008606368A
(1538191419.205692) can0 0CC#00008706368A
(1538191419.206506) can0 0A0#E96301000001
(1538191419.206708) can0 0C1#00008806368B
(1538191419.207394) can0 0C2#00008906368C
(1538191419.212571) can0 053#009600640B0636A5
(1538191419.213911) can0 00C#008A063693
(1538191419.214141) can0 0C7#FFFFFFF1F8063693
(1538191419.215032) can0 0C8#0000000FF9063694
(1538191419.215902) can0 0C9#00000000FA063695
(1538191419.216447) can0 0A0#E96301000001
(1538191419.216751) can0 0C3#007C02FBFB063695
(1538191419.217654) can0 0C4#02F002BCFC063696
(1538191419.218520) can0 0A1#5A5A8B063697
(1538191419.222584) can0 053#009900620A0636AF
(1538191419.223938) can0 0CA#00008C06369D
(1538191419.224822) can0 0CB#00008D06369E
(1538191419.225695) can0 0CC#00008E06369E
(1538191419.226587) can0 050#00000837FD06369F
(1538191419.227444) can0 051#00000786FE0636A0
(1538191419.227527) can0 0CD#2001
(1538191419.227966) can0 0A0#E96301000001
(1538191419.228312) can0 0BB#5A
(1538191419.232562) can0 053#009C0060090636B9
(1538191419.233959) can0 0C7#00000000FF0636A7
(1538191419.234880) can0 0C8#0000000F000636A8
(1538191419.235756) can0 0C9#00000000010636A8
(1538191419.236559) can0 052#0000020636A9
(1538191419.236751) can0 0A0#E96301000001
(1538191419.242564) can0 053#009E005E080636C3
(1538191419.243936) can0 0CA#00008F0636B1
(1538191419.244831) can0 0CB#0000900636B2
(1538191419.245711) can0 0CC#0000910636B2
(1538191419.246473) can0 0A0#E96301000001
(1538191419.246680) can0 0C1#0000920636B3
(1538191419.247411) can0 0C2#0000930636B4
(1538191419.252585) can0 053#009F005C070636CD
(1538191419.253975) can0 0C7#00000000030636BB
(1538191419.254873) can0 0C8#0000000F040636BC
(1538191419.255785) can0 0C9#00000000050636BC
(1538191419.256467) can0 0A0#E96301000001
(1538191419.256702) can0 0C3#002A0305060636BD
(1538191419.257522) can0 0C4#02F502BD070636BE
(1538191419.262559) can0 053#009F005A060636D7
(1538191419.263937) can0 0CA#FFF7940636C5
(1538191419.264816) can0 0CB#0000950636C6
(1538191419.265717) can0 0CC#0000960636C6
(1538191419.266578) can0 050#00000837080636C7
(1538191419.266777) can0 0A0#E96301000001
(1538191419.267441) can0 051#00000786090636C8
(1538191419.272541) can0 053#00A10058050636E1
(1538191419.274021) can0 0C7#000000000A0636CF
(1538191419.274903) can0 0C8#0000000F0B0636D0
(1538191419.275808) can0 0C9#000000000C0636D0
(1538191419.276592) can0 052#00000D0636D1
(1538191419.277162) can0 0A0#E96301000001
(1538191419.282584) can0 053#00A20056040636EB
(1538191419.283907) can0 0CA#0000970636D9
(1538191419.284816) can0 0CB#0000980636DA
(1538191419.285745) can0 0CC#0000990636DA
(1538191419.286587) can0 0A0#E96301000001
(1538191419.286795) can0 0C1#00009A0636DB
(1538191419.287424) can0 0C2#00009B0636DC
(1538191419.292550) can0 053#00A30054030636F5
(1538191419.293901) can0 00C#009C0636E3
(1538191419.294109) can0 0C7#FFFFFFF10E0636E3
(1538191419.295041) can0 0C8#0000000F0F0636E4
(1538191419.295908) can0 0C9#00000000100636E5
(1538191419.296690) can0 0A0#E96301000001
(1538191419.296925) can0 0C3#003E0305110636E5
(1538191419.297658) can0 0C4#02F702BF120636E6
(1538191419.298522) can0 0A1#5A5A9D0636E7
(1538191419.302554) can0 053#00A00052020636FF
(1538191419.303936) can0 0CA#00009E0636ED
(1538191419.304835) can0 0CB#00009F0636EE
(1538191419.305706) can0 0CC#0000A00636EE
(1538191419.306588) can0 050#00000837130636EF
(1538191419.306782) can0 0A0#E96301000001
(1538191419.307447) can0 051#00000786140636F0
(1538191419.312512) can0 053#0095005001063709
(1538191419.313967) can0 0C7#00000000150636F7
(1538191419.314874) can0 0C8#0000000F160636F8
(1538191419.315766) can0 0C9#00000000170636F8
(1538191419.316313) can0 0A0#E96301000001
(1538191419.316573) can0 052#0000180636F9
(1538191419.322546) can0 053#008A005202063713
(1538191419.323948) can0 0CA#0000A1063701
(1538191419.324827) can0 0CB#0000A2063702
(1538191419.325703) can0 0CC#0000A3063702
(1538191419.326556) can0 0C1#0000A4063703
(1538191419.327420) can0 0C2#0000A5063704
(1538191419.327502) can0 0CD#2001
(1538191419.327948) can0 0A0#E96301000001
(1538191419.328269) can0 0BB#5A
(1538191419.332501) can0 053#008000540306371D
(1538191419.333965) can0 0C7#000000001906370B
(1538191419.334863) can0 0C8#0000000F1A06370C
(1538191419.335760) can0 0C9#000000001B06370C
(1538191419.336364) can0 0A0#E96301000001
(1538191419.336608) can0 0C3#006202FC1C06370D
(1538191419.337528) can0 0C4#02F402BC1D06370E
(1538191419.342516) can0 053#007A005604063727
(1538191419.343937) can0 0CA#FFF7A6063715
(1538191419.344817) can0 0CB#0000A7063716
(1538191419.345701) can0 0CC#0000A8063716
(1538191419.346514) can0 0A0#E96301000001
(1538191419.346747) can0 050#000008371E063717
(1538191419.347445) can0 051#000007861F063718
(1538191419.352557) can0 053#0077005805063731
(1538191419.353982) can0 0C7#000000002006371F
(1538191419.354879) can0 0C8#0000000F21063720
(1538191419.355792) can0 0C9#0000000022063720
(1538191419.356574) can0 052#000023063721
(1538191419.356752) can0 0A0#E96301000001
(1538191419.362590) can0 053#007F005A0606373B
(1538191419.363943) can0 0CA#0000A9063729
(1538191419.364812) can0 0CB#0000AA06372A
(1538191419.365697) can0 0CC#0000AB06372A
(1538191419.366539) can0 0C1#0000AC06372B
(1538191419.366737) can0 0A0#E96301000001
(1538191419.367407) can0 0C2#0000AD06372C
(1538191419.372551) can0 053#0087005C07063745
(1538191419.373927) can0 00C#00AE063733
(1538191419.374150) can0 0C7#FFFFFFF124063733
(1538191419.375061) can0 0C8#0000000F25063734
(1538191419.375970) can0 0C9#0000000026063735
(1538191419.376665) can0 0A0#E96301000001
(1538191419.376888) can0 0C3#000B030727063735
(1538191419.377690) can0 0C4#02F502BE28063736
(1538191419.378548) can0 0A1#5A5AAF063737
(1538191419.382600) can0 053#008C005E0806374F
(1538191419.383941) can0 0CA#0000B006373D
(1538191419.384819) can0 0CB#0000B106373E
(1538191419.385700) can0 0CC#0000B206373E
(1538191419.386461) can0 0A0#E96301000001
(1538191419.386711) can0 050#000008372906373F
(1538191419.387451) can0 051#000007862A063740
(1538191419.392575) can0 053#0090006009063759
(1538191419.393982) can0 0C7#000000002B063747
(1538191419.394889) can0 0C8#0000000F2C063748
(1538191419.395791) can0 0C9#000000002D063748
(1538191419.396589) can0 052#00002E063749
(1538191419.396778) can0 0A0#E96301000001
(1538191419.402565) can0 053#009300620A063763
(1538191419.403946) can0 0CA#0000B3063751
(1538191419.404827) can0 0CB#0000B4063752
(1538191419.405738) can0 0CC#0000B5063752
(1538191419.406455) can0 0A0#E96301000001
(1538191419.406653) can0 0C1#0000B6063753
(1538191419.407424) can0 0C2#0000B7063754
(1538191419.412566) can0 053#009700640B06376D
(1538191419.413970) can0 0C7#000000002F06375B
(1538191419.414866) can0 0C8#0000000F3006375C
(1538191419.415762) can0 0C9#000000003106375C
(1538191419.416295) can0 0A0#E96301000001
(1538191419.416618) can0 0C3#002F03013206375D
(1538191419.417516) can0 0C4#02F202BD3306375E
(1538191419.422597) can0 053#009900620A063777
(1538191419.423939) can0 0CA#FFF7B8063765
(1538191419.424818) can0 0CB#0000B9063766
(1538191419.425692) can0 0CC#0000BA063766
(1538191419.426587) can0 050#0000083734063767
(1538191419.427444) can0 051#0000078635063768
(1538191419.427565) can0 0CD#2001
(1538191419.427979) can0 0A0#E96301000001
(1538191419.428325) can0 0BB#5A
(1538191419.432553) can0 053#009C006009063781
(1538191419.433975) can0 0C7#000000003606376F
(1538191419.434858) can0 0C8#0000000F37063770
(1538191419.435758) can0 0C9#0000000038063770
(1538191419.436538) can0 0A0#E96301000001
(1538191419.436738) can0 052#000039063771
(1538191419.442614) can0 053#009E005E0806378B
(1538191419.443927) can0 0CA#0000BB063779
(1538191419.444830) can0 0CB#0000BC06377A
(1538191419.445701) can0 0CC#0000BD06377A
(1538191419.446539) can0 0C1#0000BE06377B
(1538191419.446719) can0 0A0#E96301000001
(1538191419.447408) can0 0C2#0000BF06377C
(1538191419.452584) can0 053#009F005C07063795
(1538191419.453910) can0 00C#00C0063783
(1538191419.454131) can0 0C7#FFFFFFF13A063783
(1538191419.455019) can0 0C8#0000000F3B063784
(1538191419.455907) can0 0C9#000000003C063785
(1538191419.456380) can0 0A0#E96301000001
(1538191419.456760) can0 0C3#004303023D063785
(1538191419.457665) can0 0C4#02F402BE3E063786
(1538191419.458493) can0 0A1#5A5AC1063787
(1538191419.462604) can0 053#00A0005A0606379F
(1538191419.463956) can0 0CA#0000C206378D
(1538191419.464831) can0 0CB#0000C306378E
(1538191419.465703) can0 0CC#0000C406378E
(1538191419.466520) can0 0A0#E96301000001
(1538191419.466766) can0 050#000008373F06378F
(1538191419.467449) can0 051#0000078640063790
(1538191419.472558) can0 053#00A10058050637A9
(1538191419.474010) can0 0C7#0000000041063797
(1538191419.474916) can0 0C8#0000000F42063798
(1538191419.475801) can0 0C9#0000000043063798
(1538191419.476660) can0 052#000044063799
(1538191419.477089) can0 0A0#E96301000001
(1538191419.482571) can0 053#00A20056040637B3
(1538191419.483953) can0 0CA#0000C50637A1
(1538191419.484872) can0 0CB#0000C60637A2
(1538191419.485725) can0 0CC#0000C70637A2
(1538191419.486436) can0 0A0#E96301000001
(1538191419.486636) can0 0C1#0000C80637A3
(1538191419.487419) can0 0C2#0000C90637A4
(1538191419.492602) can0 053#00A30054030637BD
(1538191419.493981) can0 0C7#00000000450637AB
(1538191419.494905) can0 0C8#0000000F460637AC
(1538191419.495779) can0 0C9#00000000470637AC
(1538191419.496527) can0 0A0#E96301000001
(1538191419.496761) can0 0C3#00240300480637AD
(1538191419.497490) can0 0C4#02F302BC490637AE
(1538191419.502554) can0 053#00A00052020637C7
(1538191419.503950) can0 0CA#FFF7CA0637B5
(1538191419.504866) can0 0CB#0000CB0637B6
(1538191419.505716) can0 0CC#0000CC0637B6
(1538191419.506590) can0 050#000008374A0637B7
(1538191419.506770) can0 0A0#E96301000001
(1538191419.507442) can0 051#000007864B0637B8
(1538191419.512526) can0 053#00950050010637D1
(1538191419.514038) can0 0C7#000000004C0637BF
(1538191419.514890) can0 0C8#0000000F4D0637C0
(1538191419.515781) can0 0C9#000000004E0637C0
(1538191419.516578) can0 052#00004F0637C1
(1538191419.516758) can0 0A0#E96301000001
(1538191419.522525) can0 053#008A0052020637DB
(1538191419.523932) can0 0CA#0000CD0637C9
(1538191419.524831) can0 0CB#0000CE0637CA
(1538191419.525699) can0 0CC#0000CF0637CA
(1538191419.526574) can0 0C1#0000D00637CB
(1538191419.527415) can0 0C2#0000D10637CC
(1538191419.527491) can0 0CD#2001
(1538191419.527902) can0 0A0#E96301000001
(1538191419.528215) can0 0BB#5A
(1538191419.532506) can0 053#00800054030637E5
(1538191419.533912) can0 00C#00D20637D3
(1538191419.534133) can0 0C7#FFFFFFF1500637D3
(1538191419.535049) can0 0C8#0000000F510637D4
(1538191419.535925) can0 0C9#00000000520637D5
(1538191419.536558) can0 0A0#E96301000001
(1538191419.536796) can0 0C3#00480301530637D5
(1538191419.537657) can0 0C4#02F602BF540637D6
(1538191419.538500) can0 0A1#5A5AD30637D7
(1538191419.542533) can0 053#00790056040637EF
(1538191419.543967) can0 0CA#0000D40637DD
(1538191419.544835) can0 0CB#0000D50637DE
(1538191419.545747) can0 0CC#0000D60637DE
(1538191419.546495) can0 0A0#E96301000001
(1538191419.546744) can0 050#00000837550637DF
(1538191419.547454) can0 051#00000786560637E0
(1538191419.552511) can0 053#00750058050637F9
(1538191419.553983) can0 0C7#00000000570637E7
(1538191419.554926) can0 0C8#0000000F580637E8
(1538191419.555785) can0 0C9#00000000590637E8
(1538191419.556409) can0 0A0#E96301000001
(1538191419.556621) can0 052#00005A0637E9
(1538191419.562600) can0 053#007D005A06063803
(1538191419.563951) can0 0CA#0000D70637F1
(1538191419.564862) can0 0CB#0000D80637F2
(1538191419.565724) can0 0CC#0000D90637F2
(1538191419.566371) can0 0A0#E96301000001
(1538191419.566581) can0 0C1#0000DA0637F3
(1538191419.567436) can0 0C2#0000DB0637F4
(1538191419.572609) can0 053#0084005C0706380D
(1538191419.574014) can0 0C7#000000005B0637FB
(1538191419.575022) can0 0C8#0000000F5C0637FC
(1538191419.575804) can0 0C9#000000005D0637FC
(1538191419.576655) can0 0C3#000A02FC5E0637FD
(1538191419.576829) can0 0A0#E96301000001
(1538191419.577508) can0 0C4#02F202BA5F0637FE
(1538191419.582589) can0 053#008B005E08063817
(1538191419.583955) can0 0CA#FFF7DC063805
(1538191419.584849) can0 0CB#0000DD063806
(1538191419.585725) can0 0CC#0000DE063806
(1538191419.586427) can0 0A0#E96301000001
(1538191419.586674) can0 050#0000083760063807
(1538191419.587442) can0 051#0000078661063808
(1538191419.592589) can0 053#008F006009063821
(1538191419.594011) can0 0C7#000000006206380F
(1538191419.594877) can0 0C8#0000000F63063810
(1538191419.595799) can0 0C9#0000000064063810
(1538191419.596587) can0 052#000065063811
(1538191419.596765) can0 0A0#E96301000001
(1538191419.602570) can0 053#009200620A06382B
(1538191419.603938) can0 0CA#0000DF063819
(1538191419.604898) can0 0CB#0000E006381A
(1538191419.605712) can0 0CC#0000E106381A
(1538191419.606439) can0 0A0#E96301000001
(1538191419.606634) can0 0C1#0000E206381B
(1538191419.607411) can0 0C2#0000E306381C
(1538191419.612602) can0 053#009500640B063835
(1538191419.613989) can0 00C#00E4063823
(1538191419.614167) can0 0C7#FFFFFFF166063823
(1538191419.615063) can0 0C8#0000000F67063824
(1538191419.615973) can0 0C9#0000000068063825
(1538191419.616445) can0 0A0#E96301000001
(1538191419.616784) can0 0C3#0025030269063825
(1538191419.617645) can0 0C4#02F502BD6A063826
(1538191419.618466) can0 0A1#5A5AE5063827
(1538191419.622595) can0 053#009900620A06383F
(1538191419.623986) can0 0CA#0000E606382D
(1538191419.624860) can0 0CB#0000E706382E
(1538191419.625723) can0 0CC#0000E806382E
(1538191419.626612) can0 050#000008376B06382F
(1538191419.627463) can0 051#000007866C063830
(1538191419.627543) can0 0CD#2001
(1538191419.627959) can0 0A0#E96301000001
(1538191419.628286) can0 0BB#5A
(1538191419.632551) can0 053#009B006009063849
(1538191419.633981) can0 0C7#000000006D063837
(1538191419.634960) can0 0C8#0000000F6E063838
(1538191419.635772) can0 0C9#000000006F063838
(1538191419.636344) can0 0A0#E96301000001
(1538191419.636580) can0 052#000070063839
(1538191419.642579) can0 053#009E005E08063853
(1538191419.643953) can0 0CA#0000E9063841
(1538191419.644854) can0 0CB#0000EA063842
(1538191419.645748) can0 0CC#0000EB063842
(1538191419.646361) can0 0A0#E96301000001
(1538191419.646558) can0 0C1#0000EC063843
(1538191419.647416) can0 0C2#0000ED063844
(1538191419.652583) can0 053#009F005C0706385D
(1538191419.653993) can0 0C7#000000007106384B
(1538191419.654938) can0 0C8#0000000F7206384C
(1538191419.655788) can0 0C9#000000007306384C
(1538191419.656454) can0 0A0#E96301000001
(1538191419.656700) can0 0C3#005C02F87406384D
(1538191419.657490) can0 0C4#02F202BC7506384E
(1538191419.662585) can0 053#009F005A06063867
(1538191419.663954) can0 0CA#FFF7EE063855
(1538191419.664877) can0 0CB#0000EF063856
(1538191419.665748) can0 0CC#0000F0063856
(1538191419.666510) can0 0A0#E96301000001
(1538191419.666759) can0 050#0000083776063857
(1538191419.667468) can0 051#0000078677063858
(1538191419.672583) can0 053#00A1005805063871
(1538191419.674026) can0 0C7#000000007806385F
(1538191419.674908) can0 0C8#0000000F79063860
(1538191419.675812) can0 0C9#000000007A063860
(1538191419.676613) can0 052#00007B063861
(1538191419.677197) can0 0A0#E96301000001
(1538191419.682593) can0 053#00A200560406387B
(1538191419.683934) can0 0CA#0000F1063869
(1538191419.684822) can0 0CB#0000F206386A
(1538191419.685745) can0 0CC#0000F306386A
(1538191419.686395) can0 0A0#E96301000001
(1538191419.686600) can0 0C1#0000F406386B
(1538191419.687416) can0 0C2#0000F506386C
(1538191419.692592) can0 053#00A2005403063885
(1538191419.693928) can0 00C#00F6063873
(1538191419.694141) can0 0C7#FFFFFFF17C063873
(1538191419.695066) can0 0C8#0000000F7D063874
(1538191419.695933) can0 0C9#000000007E063875
(1538191419.696605) can0 0A0#E96301000001
(1538191419.696844) can0 0C3#003C02FE7F063875
(1538191419.697649) can0 0C4#02F102BC80063876
(1538191419.698465) can0 0A1#5A5AF7063877
(1538191419.702564) can0 053#00A100520206388F
(1538191419.703957) can0 0CA#0000F806387D
(1538191419.704835) can0 0CB#0000F906387E
(1538191419.705717) can0 0CC#0000FA06387E
(1538191419.706607) can0 050#000008378106387F
(1538191419.706795) can0 0A0#E96301000001
(1538191419.707453) can0 051#0000078682063880
(1538191419.712490) can0 053#0096005001063899
(1538191419.713984) can0 0C7#0000000083063887
(1538191419.714887) can0 0C8#0000000F84063888
(1538191419.715777) can0 0C9#0000000085063888
(1538191419.716321) can0 0A0#E96301000001
(1538191419.716578) can0 052#000086063889
(1538191419.722532) can0 053#008A0052020638A3
(1538191419.723955) can0 0CA#0000FB063891
(1538191419.724828) can0 0CB#0000FC063892
(1538191419.725739) can0 0CC#0000FD063892
(1538191419.726581) can0 0C1#0000FE063893
(1538191419.727426) can0 0C2#0000FF063894
(1538191419.727506) can0 0CD#2001
(1538191419.727935) can0 0A0#E96301000001
(1538191419.728288) can0 0BB#5A
(1538191419.732524) can0 053#00810054030638AD
(1538191419.734016) can0 0C7#000000008706389B
(1538191419.734900) can0 0C8#0000000F8806389C
(1538191419.735790) can0 0C9#000000008906389C
(1538191419.736465) can0 0A0#E96301000001
(1538191419.736699) can0 0C3#002A02F98A06389D
(1538191419.737529) can0 0C4#02F302BC8B06389E
(1538191419.742510) can0 053#007A0056040638B7
(1538191419.743961) can0 0CA#FFF7000638A5
(1538191419.744834) can0 0CB#0000010638A6
(1538191419.745713) can0 0CC#0000020638A6
(1538191419.746549) can0 0A0#E96301000001
(1538191419.746791) can0 050#000008378C0638A7
(1538191419.747454) can0 051#000007868D0638A8
(1538191419.752595) can0 053#00770058050638C1
(1538191419.754084) can0 0C7#000000008E0638AF
(1538191419.754975) can0 0C8#0000000F8F0638B0
(1538191419.755786) can0 0C9#00000000900638B0
(1538191419.756589) can0 052#0000910638B1
(1538191419.756764) can0 0A0#E96301000001
(1538191419.762580) can0 053#0080005A060638CB
(1538191419.763939) can0 0CA#0000030638B9
(1538191419.764841) can0 0CB#0000040638BA
(1538191419.765618) can0 0A0#E96301000001
(1538191419.765834) can0 0CC#0000050638BA
(1538191419.766568) can0 0C1#0000060638BB
(1538191419.767425) can0 0C2#0000070638BC
(1538191419.772561) can0 053#0087005C070638D5
(1538191419.773960) can0 00C#00080638C3
(1538191419.774171) can0 0C7#FFFFFFF1920638C3
(1538191419.775103) can0 0C8#0000000F930638C4
(1538191419.776021) can0 0C9#00000000940638C5
(1538191419.776822) can0 0C3#000502F8950638C5
(1538191419.777389) can0 0A0#E96301000001
(1538191419.777676) can0 0C4#02F002BA960638C6
(1538191419.778483) can0 0A1#585A090638C7
(1538191419.782586) can0 053#008D005E080638DF
(1538191419.783970) can0 0CA#00000A0638CD
(1538191419.784854) can0 0CB#00000B0638CE
(1538191419.785744) can0 0CC#00000C0638CE
(1538191419.786467) can0 0A0#E96301000001
(1538191419.786704) can0 050#00000837970638CF
(1538191419.787456) can0 051#00000786980638D0
(1538191419.792548) can0 053#00900060090638E9
(1538191419.793984) can0 0C7#00000000990638D7
(1538191419.794915) can0 0C8#0000000F9A0638D8
(1538191419.795773) can0 0C9#000000009B0638D8
(1538191419.795950) can0 0A0#E96301000001
(1538191419.796602) can0 052#00009C0638D9
(1538191419.802577) can0 053#009300620A0638F3
(1538191419.803954) can0 0CA#00000D0638E1
(1538191419.804866) can0 0CB#00000E0638E2
(1538191419.805732) can0 0CC#00000F0638E2
(1538191419.806522) can0 0A0#E96301000001
(1538191419.806744) can0 0C1#0000100638E3
(1538191419.807421) can0 0C2#0000110638E4
(1538191419.812565) can0 053#009600640B0638FD
(1538191419.814039) can0 0C7#000000009D0638EB
(1538191419.814957) can0 0C8#0000000F9E0638EC
(1538191419.815825) can0 0C9#000000009F0638EC
(1538191419.816503) can0 0A0#E96301000001
(1538191419.816743) can0 0C3#003002EDA00638ED
(1538191419.817507) can0 0C4#02EF02BAA10638EE
(1538191419.822566) can0 053#009A00620A063907
(1538191419.823977) can0 0CA#FFF7120638F5
(1538191419.824883) can0 0CB#0000130638F6
(1538191419.825736) can0 0CC#0000140638F6
(1538191419.826631) can0 050#00000837A20638F7
(1538191419.827334) can0 0CD#2001
(1538191419.827588) can0 051#00000786A30638F8
(1538191419.827762) can0 0A0#E96301000001
(1538191419.828080) can0 0BB#5A
(1538191419.832561) can0 053#009C006009063911
(1538191419.834016) can0 0C7#00000000A40638FF
(1538191419.834916) can0 0C8#0000000FA5063900
(1538191419.835802) can0 0C9#00000000A6063900
(1538191419.836403) can0 0A0#E96301000001
(1538191419.836625) can0 052#0000A7063901
(1538191419.842545) can0 053#009F005E0806391B
(1538191419.843942) can0 0CA#000015063909
(1538191419.844879) can0 0CB#00001606390A
(1538191419.845742) can0 0CC#00001706390A
(1538191419.846458) can0 0A0#E96301000001
(1538191419.846666) can0 0C1#00001806390B
(1538191419.847420) can0 0C2#00001906390C
(1538191419.852587) can0 053#009F005C07063925
(1538191419.853925) can0 00C#001A063913
(1538191419.854142) can0 0C7#FFFFFFF1A8063913
(1538191419.855062) can0 0C8#0000000FA9063914
(1538191419.855949) can0 0C9#00000000AA063915
(1538191419.856526) can0 0A0#E96301000001
(1538191419.856784) can0 0C3#000702F8AB063915
(1538191419.857647) can0 0C4#02F002BBAC063916
(1538191419.858466) can0 0A1#585A1B063917
(1538191419.862595) can0 053#00A0005A0606392F
(1538191419.864020) can0 0CA#00001C06391D
(1538191419.864916) can0 0CB#00001D06391E
(1538191419.865745) can0 0CC#00001E06391E
(1538191419.866642) can0 050#00000837AD06391F
(1538191419.867077) can0 0A0#E96301000001
(1538191419.867478) can0 051#00000786AE063920
(1538191419.872539) can0 053#00A1005805063939
(1538191419.874026) can0 0C7#00000000AF063927
(1538191419.874972) can0 0C8#0000000FB0063928
(1538191419.875836) can0 0C9#00000000B1063928
(1538191419.876642) can0 052#0000B2063929
(1538191419.877608) can0 0A0#E96301000001
(1538191419.882617) can0 053#00A2005604063943
(1538191419.883974) can0 0CA#00001F063931
(1538191419.884860) can0 0CB#000020063932
(1538191419.885741) can0 0CC#000021063932
(1538191419.886398) can0 0A0#E96301000001
(1538191419.886651) can0 0C1#000022063933
(1538191419.887488) can0 0C2#000023063934
(1538191419.892573) can0 053#00A300540306394D
(1538191419.894007) can0 0C7#00000000B306393B
(1538191419.894903) can0 0C8#0000000FB406393C
(1538191419.895803) can0 0C9#00000000B506393C
(1538191419.896558) can0 0A0#E96301000001
(1538191419.896797) can0 0C3#003D02F4B606393D
(1538191419.897516) can0 0C4#02F502BDB706393E
(1538191419.902557) can0 053#00A1005202063957
(1538191419.903979) can0 0CA#FFF724063945
(1538191419.904870) can0 0CB#000025063946
(1538191419.905740) can0 0CC#000026063946
(1538191419.906620) can0 050#00000837B8063947
(1538191419.906810) can0 0A0#E96301000001
(1538191419.907479) can0 051#00000786B9063948
(1538191419.912556) can0 053#0096005001063961
(1538191419.914039) can0 0C7#00000000BA06394F
(1538191419.914970) can0 0C8#0000000FBB063950
(1538191419.915850) can0 0C9#00000000BC063950
(1538191419.916457) can0 0A0#E96301000001
(1538191419.916651) can0 052#0000BD063951
(1538191419.922519) can0 053#008C00520206396B
(1538191419.923961) can0 0CA#000027063959
(1538191419.924849) can0 0CB#00002806395A
(1538191419.925740) can0 0CC#00002906395A
(1538191419.926588) can0 0C1#00002A06395B
(1538191419.927275) can0 0CD#2001
(1538191419.927524) can0 0C2#00002B06395C
(1538191419.927719) can0 0A0#E96301000001
(1538191419.928057) can0 0BB#5A
(1538191419.932514) can0 053#0082005403063975
(1538191419.933931) can0 00C#002C063963
(1538191419.934143) can0 0C7#FFFFFFF1BE063963
(1538191419.935079) can0 0C8#0000000FBF063964
(1538191419.935936) can0 0C9#00000000C0063965
(1538191419.936456) can0 0A0#E96301000001
(1538191419.936792) can0 0C3#003E02F3C1063965
(1538191419.937653) can0 0C4#02F002BBC2063966
(1538191419.938471) can0 0A1#585A2D063967
(1538191419.942540) can0 053#007B00560406397F
(1538191419.943978) can0 0CA#00002E06396D
(1538191419.944882) can0 0CB#00002F06396E
(1538191419.945745) can0 0CC#00003006396E
(1538191419.946554) can0 0A0#E96301000001
(1538191419.946806) can0 050#00000837C306396F
(1538191419.947473) can0 051#00000786C4063970
(1538191419.952524) can0 053#0077005805063989
(1538191419.954050) can0 0C7#00000000C5063977
(1538191419.954950) can0 0C8#0000000FC6063978
(1538191419.955824) can0 0C9#00000000C7063978
(1538191419.956580) can0 0A0#E96301000001
(1538191419.956774) can0 052#0000C8063979
(1538191419.962567) can0 053#007F005A06063993
(1538191419.963971) can0 0CA#000031063981
(1538191419.964873) can0 0CB#000032063982
(1538191419.965747) can0 0CC#000033063982
(1538191419.966567) can0 0A0#E96301000001
(1538191419.966781) can0 0C1#000034063983
(1538191419.967438) can0 0C2#000035063984
(1538191419.972547) can0 053#0086005C0706399D
(1538191419.974027) can0 0C7#00000000C906398B
(1538191419.975014) can0 0C8#0000000FCA06398C
(1538191419.975827) can0 0C9#00000000CB06398C
(1538191419.976698) can0 0C3#000F02FACC06398D
(1538191419.977153) can0 0A0#E96301000001
(1538191419.977524) can0 0C4#02F302BCCD06398E
(1538191419.982569) can0 053#008C005E080639A7
(1538191419.984012) can0 0CA#FFF736063995
(1538191419.984922) can0 0CB#000037063996
(1538191419.985744) can0 0CC#000038063996
(1538191419.986647) can0 050#00000837CE063997
(1538191419.986802) can0 0A0#E96301000001
(1538191419.987483) can0 051#00000786CF063998
(1538191419.992591) can0 053#00900060090639B1
(1538191419.994010) can0 0C7#00000000D006399F
(1538191419.994964) can0 0C8#0000000FD10639A0
(1538191419.995800) can0 0C9#00000000D20639A0
(1538191419.996476) can0 0A0#E96301000001
(1538191419.996696) can0 052#0000D30639A1
(1538191420.002566) can0 053#009300620A0639BB
(1538191420.003952) can0 0CA#0000390639A9
(1538191420.004870) can0 0CB#00003A0639AA
(1538191420.005734) can0 0CC#00003B0639AA
(1538191420.006518) can0 0A0#E96301000001
(1538191420.006734) can0 0C1#00003C0639AB
(1538191420.007432) can0 0C2#00003D0639AC
(1538191420.012564) can0 053#009600640B0639C5
(1538191420.013934) can0 00C#003E0639B3
(1538191420.014168) can0 0C7#FFFFFFF1D40639B3
(1538191420.015066) can0 0C8#0000000FD50639B4
(1538191420.015947) can0 0C9#00000000D60639B5
(1538191420.016373) can0 0A0#E96301000001
(1538191420.016794) can0 0C3#006102FED70639B5
(1538191420.017659) can0 0C4#02F302BDD80639B6
(1538191420.018481) can0 0A1#5A5A3F0639B7
(1538191420.022599) can0 053#009800620A0639CF
(1538191420.024012) can0 0CA#0000400639BD
(1538191420.024872) can0 0CB#0000410639BE
(1538191420.025751) can0 0CC#0000420639BE
(1538191420.026636) can0 050#00000837D90639BF
(1538191420.027481) can0 051#00000786DA0639C0
(1538191420.027557) can0 0CD#2001
(1538191420.027978) can0 0A0#E96301000001
(1538191420.028321) can0 0BB#5A
(1538191420.032553) can0 053#009B0060090639D9
(1538191420.033997) can0 0C7#00000000DB0639C7
(1538191420.034913) can0 0C8#0000000FDC0639C8
(1538191420.035796) can0 0C9#00000000DD0639C8
(1538191420.036459) can0 0A0#E96301000001
(1538191420.036677) can0 052#0000DE0639C9
(1538191420.042563) can0 053#009D005E080639E3
(1538191420.043997) can0 0CA#0000430639D1
(1538191420.044895) can0 0CB#0000440639D2
(1538191420.045742) can0 0CC#0000450639D2
(1538191420.046593) can0 0C1#0000460639D3
(1538191420.046768) can0 0A0#E96301000001
(1538191420.047435) can0 0C2#0000470639D4
(1538191420.052543) can0 053#009E005C070639ED
(1538191420.054013) can0 0C7#00000000DF0639DB
(1538191420.054980) can0 0C8#0000000FE00639DC
(1538191420.055814) can0 0C9#00000000E10639DC
(1538191420.056353) can0 0A0#E96301000001
(1538191420.056658) can0 0C3#00180301E20639DD
(1538191420.057539) can0 0C4#02F502BCE30639DE
(1538191420.062586) can0 053#009F005A060639F7
(1538191420.063980) can0 0CA#FFF7480639E5
(1538191420.064882) can0 0CB#0000490639E6
(1538191420.065754) can0 0CC#00004A0639E6
(1538191420.066632) can0 050#00000837E40639E7
(1538191420.066810) can0 0A0#E96301000001
(1538191420.067482) can0 051#00000786E50639E8
(1538191420.072557) can0 053#00A1005805063A01
(1538191420.074056) can0 0C7#00000000E60639EF
(1538191420.075016) can0 0C8#0000000FE70639F0
(1538191420.075868) can0 0C9#00000000E80639F0
(1538191420.076652) can0 052#0000E90639F1
(1538191420.077568) can0 0A0#E96301000001
(1538191420.082610) can0 053#00A2005604063A0B
(1538191420.084036) can0 0CA#00004B0639F9
(1538191420.084886) can0 0CB#00004C0639FA
(1538191420.085756) can0 0CC#00004D0639FA
(1538191420.086521) can0 0A0#E96301000001
(1538191420.086741) can0 0C1#00004E0639FB
(1538191420.087453) can0 0C2#00004F0639FC
(1538191420.092565) can0 053#00A3005403063A15
(1538191420.093934) can0 00C#0050063A03
(1538191420.094156) can0 0C7#FFFFFFF1EA063A03
(1538191420.095066) can0 0C8#0000000FEB063A04
(1538191420.095952) can0 0C9#00000000EC063A05
(1538191420.096603) can0 0A0#E96301000001
(1538191420.096843) can0 0C3#004E02FCED063A05
(1538191420.097655) can0 0C4#02F102BCEE063A06
(1538191420.098480) can0 0A1#5A5A51063A07
(1538191420.102563) can0 053#00A1005202063A1F
(1538191420.103979) can0 0CA#000052063A0D
(1538191420.104857) can0 0CB#000053063A0E
(1538191420.105778) can0 0CC#000054063A0E
(1538191420.106172) can0 0A0#E96301000001
(1538191420.106638) can0 050#00000837EF063A0F
(1538191420.107485) can0 051#00000786F0063A10
(1538191420.112508) can0 053#0096005001063A29
(1538191420.114038) can0 0C7#00000000F1063A17
(1538191420.114923) can0 0C8#0000000FF2063A18
(1538191420.115818) can0 0C9#00000000F3063A18
(1538191420.116456) can0 0A0#E96301000001
(1538191420.116662) can0 052#0000F4063A19
(1538191420.122559) can0 053#008B005202063A33
(1538191420.123986) can0 0CA#000055063A21
(1538191420.124863) can0 0CB#000056063A22
(1538191420.125753) can0 0CC#000057063A22
(1538191420.126601) can0 0C1#000058063A23
(1538191420.127372) can0 0CD#2001
(1538191420.127623) can0 0C2#000059063A24
(1538191420.127814) can0 0A0#E96301000001
(1538191420.128152) can0 0BB#5A
(1538191420.132509) can0 053#0082005403063A3D
(1538191420.134021) can0 0C7#00000000F5063A2B
(1538191420.134919) can0 0C8#0000000FF6063A2C
(1538191420.135810) can0 0C9#00000000F7063A2C
(1538191420.136471) can0 0A0#E96301000001
(1538191420.136706) can0 0C3#002B0304F8063A2D
(1538191420.137526) can0 0C4#02F502BCF9063A2E
(1538191420.142512) can0 053#007B005604063A47
(1538191420.143985) can0 0CA#FFF75A063A35
(1538191420.144856) can0 0CB#00005B063A36
(1538191420.145754) can0 0CC#00005C063A36
(1538191420.146408) can0 0A0#E96301000001
(1538191420.146655) can0 050#00000837FA063A37
(1538191420.147479) can0 051#00000786FB063A38
(1538191420.152552) can0 053#0077005805063A51
(1538191420.154026) can0 0C7#00000000FC063A3F
(1538191420.154917) can0 0C8#0000000FFD063A40
(1538191420.155813) can0 0C9#00000000FE063A40
(1538191420.156354) can0 0A0#E96301000001
(1538191420.156614) can0 052#0000FF063A41
(1538191420.162607) can0 053#007E005A06063A5B
(1538191420.163976) can0 0CA#00005D063A49
(1538191420.164848) can0 0CB#00005E063A4A
(1538191420.165356) can0 0A0#E96301000001
(1538191420.165736) can0 0CC#00005F063A4A
(1538191420.166588) can0 0C1#000060063A4B
(1538191420.167464) can0 0C2#000061063A4C
(1538191420.172569) can0 053#0085005C07063A65
(1538191420.173973) can0 00C#0062063A53
(1538191420.174215) can0 0C7#FFFFFFF100063A53
(1538191420.175104) can0 0C8#0000000F01063A54
(1538191420.175981) can0 0C9#0000000002063A55
(1538191420.176725) can0 0A0#E96301000001
(1538191420.176976) can0 0C3#001B02FA03063A55
(1538191420.177709) can0 0C4#02F502BE04063A56
(1538191420.178505) can0 0A1#5A5A63063A57
(1538191420.182572) can0 053#008B005E08063A6F
(1538191420.183993) can0 0CA#000064063A5D
(1538191420.184886) can0 0CB#000065063A5E
(1538191420.185765) can0 0CC#000066063A5E
(1538191420.186381) can0 0A0#E96301000001
(1538191420.186622) can0 050#0000083705063A5F
(1538191420.187500) can0 051#0000078606063A60
(1538191420.192564) can0 053#0090006009063A79
(1538191420.194009) can0 0C7#0000000007063A67
(1538191420.194922) can0 0C8#0000000F08063A68
(1538191420.195786) can0 0C9#0000000009063A68
(1538191420.195969) can0 0A0#E96301000001
(1538191420.196620) can0 052#00000A063A69
(1538191420.202574) can0 053#009300620A063A83
(1538191420.203970) can0 0CA#000067063A71
(1538191420.204889) can0 0CB#000068063A72
(1538191420.205744) can0 0CC#000069063A72
(1538191420.206588) can0 0C1#00006A063A73
(1538191420.207076) can0 0A0#E96301000001
(1538191420.207445) can0 0C2#00006B063A74
(1538191420.212564) can0 053#009600640B063A8D
(1538191420.214028) can0 0C7#000000000B063A7B
(1538191420.214926) can0 0C8#0000000F0C063A7C
(1538191420.215803) can0 0C9#000000000D063A7C
(1538191420.216028) can0 0A0#E96301000001
(1538191420.216683) can0 0C3#003702FD0E063A7D
(1538191420.217539) can0 0C4#02F302BB0F063A7E
(1538191420.222603) can0 053#009800620A063A97
(1538191420.224001) can0 0CA#FFF76C063A85
(1538191420.224891) can0 0CB#00006D063A86
(1538191420.225734) can0 0CC#00006E063A86
(1538191420.226062) can0 0CD#2001
(1538191420.226626) can0 050#0000083710063A87
(1538191420.226811) can0 0A0#E96301000001
(1538191420.227137) can0 0BB#5A
(1538191420.227494) can0 051#0000078611063A88
(1538191420.232572) can0 053#009B006009063AA1
(1538191420.234029) can0 0C7#0000000012063A8F
(1538191420.234922) can0 0C8#0000000F13063A90
(1538191420.235791) can0 0C9#0000000014063A90
(1538191420.235968) can0 0A0#E96301000001
(1538191420.236623) can0 052#000015063A91
(1538191420.242553) can0 053#009D005E08063AAB
(1538191420.243972) can0 0CA#00006F063A99
(1538191420.244868) can0 0CB#000070063A9A
(1538191420.245796) can0 0CC#000071063A9A
(1538191420.246018) can0 0A0#E96301000001
(1538191420.246608) can0 0C1#000072063A9B
(1538191420.247485) can0 0C2#000073063A9C
(1538191420.252567) can0 053#009E005C07063AB5
(1538191420.253948) can0 00C#0074063AA3
(1538191420.254162) can0 0C7#FFFFFFF116063AA3
(1538191420.255081) can0 0C8#0000000F17063AA4
(1538191420.255707) can0 0A0#E96301000001
(1538191420.255951) can0 0C9#0000000018063AA5
(1538191420.256818) can0 0C3#004202FF19063AA5
(1538191420.257677) can0 0C4#02F402BE1A063AA6
(1538191420.258518) can0 0A1#5A5A75063AA7
(1538191420.262573) can0 053#009F005A06063ABF
(1538191420.263984) can0 0CA#000076063AAD
(1538191420.264862) can0 0CB#000077063AAE
(1538191420.265746) can0 0CC#000078063AAE
(1538191420.266134) can0 0A0#E96301000001
(1538191420.266647) can0 050#000008371B063AAF
(1538191420.267487) can0 051#000007861C063AB0
(1538191420.272558) can0 053#00A0005805063AC9
(1538191420.274047) can0 0C7#000000001D063AB7
(1538191420.274942) can0 0C8#0000000F1E063AB8
(1538191420.275830) can0 0C9#000000001F063AB8
(1538191420.276627) can0 052#000020063AB9
(1538191420.276805) can0 0A0#E96301000001
(1538191420.282623) can0 053#00A2005604063AD3
(1538191420.284026) can0 0CA#000079063AC1
(1538191420.284885) can0 0CB#00007A063AC2
(1538191420.285741) can0 0CC#00007B063AC2
(1538191420.285929) can0 0A0#E96301000001
(1538191420.286608) can0 0C1#00007C063AC3
(1538191420.287469) can0 0C2#00007D063AC4
(1538191420.292554) can0 053#00A2005403063ADD
(1538191420.294024) can0 0C7#0000000021063ACB
(1538191420.294941) can0 0C8#0000000F22063ACC
(1538191420.295799) can0 0C9#0000000023063ACC
(1538191420.295998) can0 0A0#E96301000001
(1538191420.296684) can0 0C3#0005030724063ACD
(1538191420.297535) can0 0C4#02F302BB25063ACE
(1538191420.302548) can0 053#00A0005202063AE7
(1538191420.303990) can0 0CA#FFF77E063AD5
(1538191420.304911) can0 0CB#00007F063AD6
(1538191420.305751) can0 0CC#000080063AD6
(1538191420.306249) can0 0A0#E96301000001
(1538191420.306642) can0 050#0000083726063AD7
(1538191420.307498) can0 051#0000078627063AD8
(1538191420.312510) can0 053#0094005001063AF1
(1538191420.314035) can0 0C7#0000000028063ADF
(1538191420.314928) can0 0C8#0000000F29063AE0
(1538191420.315727) can0 0A0#E96301000001
(1538191420.315979) can0 0C9#000000002A063AE0
(1538191420.316637) can0 052#00002B063AE1
(1538191420.322542) can0 053#0089005202063AFB
(1538191420.323982) can0 0CA#000081063AE9
(1538191420.324880) can0 0CB#000082063AEA
(1538191420.325743) can0 0CC#000083063AEA
(1538191420.326603) can0 0C1#000084063AEB
(1538191420.326902) can0 0CD#2001
(1538191420.327327) can0 0A0#E96301000001
(1538191420.327566) can0 0C2#000085063AEC
(1538191420.327638) can0 0BB#5A
(1538191420.332511) can0 053#0080005403063B05
(1538191420.333951) can0 00C#0086063AF3
(1538191420.334157) can0 0C7#FFFFFFF12C063AF3
(1538191420.335065) can0 0C8#0000000F2D063AF4
(1538191420.335803) can0 0A0#E96301000001
(1538191420.336052) can0 0C9#000000002E063AF5
(1538191420.336811) can0 0C3#002502FF2F063AF5
(1538191420.337679) can0 0C4#02F402BD30063AF6
(1538191420.338493) can0 0A1#5A5A87063AF7
(1538191420.342528) can0 053#0079005604063B0F
(1538191420.344004) can0 0CA#000088063AFD
(1538191420.344889) can0 0CB#000089063AFE
(1538191420.345779) can0 0CC#00008A063AFE
(1538191420.346164) can0 0A0#E96301000001
(1538191420.346655) can0 050#0000083731063AFF
(1538191420.347503) can0 051#0000078632063B00
(1538191420.352544) can0 053#0077005805063B19
(1538191420.354034) can0 0C7#0000000033063B07
(1538191420.354944) can0 0C8#0000000F34063B08
(1538191420.355814) can0 0C9#0000000035063B08
(1538191420.355996) can0 0A0#E96301000001
(1538191420.356676) can0 052#000036063B09
(1538191420.362612) can0 053#0080005A06063B23
(1538191420.364016) can0 0CA#00008B063B11
(1538191420.364886) can0 0CB#00008C063B12
(1538191420.365774) can0 0CC#00008D063B12
(1538191420.365983) can0 0A0#E96301000001
(1538191420.366614) can0 0C1#00008E063B13
(1538191420.367474) can0 0C2#00008F063B14
(1538191420.372547) can0 053#0087005C07063B2D
(1538191420.374060) can0 0C7#0000000037063B1B
(1538191420.374967) can0 0C8#0000000F38063B1C
(1538191420.375837) can0 0C9#0000000039063B1C
(1538191420.376707) can0 0C3#004202FF3A063B1D
(1538191420.377365) can0 0A0#E96301000001
(1538191420.377576) can0 0C4#02F102BB3B063B1E
(1538191420.382578) can0 053#008C005E08063B37
(1538191420.384006) can0 0CA#FFF790063B25
(1538191420.384882) can0 0CB#000091063B26
(1538191420.385771) can0 0CC#000092063B26
(1538191420.386407) can0 0A0#E96301000001
(1538191420.386654) can0 050#000008373C063B27
(1538191420.387507) can0 051#000007863D063B28
(1538191420.392586) can0 053#0090006009063B41
(1538191420.394076) can0 0C7#000000003E063B2F
(1538191420.394967) can0 0C8#0000000F3F063B30
(1538191420.395837) can0 0C9#0000000040063B30
(1538191420.396637) can0 052#000041063B31
(1538191420.396820) can0 0A0#E96301000001
(1538191420.402560) can0 053#009300620A063B4B
(1538191420.403989) can0 0CA#000093063B39
(1538191420.404884) can0 0CB#000094063B3A
(1538191420.405774) can0 0CC#000095063B3A
(1538191420.406509) can0 0A0#E96301000001
(1538191420.406710) can0 0C1#000096063B3B
(1538191420.407468) can0 0C2#000097063B3C
(1538191420.412575) can0 053#009600640B063B55
(1538191420.413953) can0 00C#0098063B43
(1538191420.414172) can0 0C7#FFFFFFF142063B43
(1538191420.415083) can0 0C8#0000000F43063B44
(1538191420.416002) can0 0C9#0000000044063B45
(1538191420.416484) can0 0A0#E96301000001
(1538191420.416815) can0 0C3#004902FA45063B45
(1538191420.417706) can0 0C4#02F302BD46063B46
(1538191420.418522) can0 0A1#5A5A99063B47
(1538191420.422602) can0 053#009900620A063B5F
(1538191420.423996) can0 0CA#00009A063B4D
(1538191420.424876) can0 0CB#00009B063B4E
(1538191420.425756) can0 0CC#00009C063B4E
(1538191420.426648) can0 050#0000083747063B4F
(1538191420.427494) can0 051#0000078648063B50
(1538191420.427569) can0 0CD#2001
(1538191420.427979) can0 0A0#E96301000001
(1538191420.428320) can0 0BB#5A
(1538191420.432563) can0 053#009C006009063B69
(1538191420.434033) can0 0C7#0000000049063B57
(1538191420.434927) can0 0C8#0000000F4A063B58
(1538191420.435820) can0 0C9#000000004B063B58
(1538191420.436621) can0 052#00004C063B59
(1538191420.436803) can0 0A0#E96301000001
(1538191420.442577) can0 053#009E005E08063B73
(1538191420.443986) can0 0CA#00009D063B61
(1538191420.444873) can0 0CB#00009E063B62
(1538191420.445762) can0 0CC#00009F063B62
(1538191420.446506) can0 0A0#E96301000001
(1538191420.446710) can0 0C1#0000A0063B63
(1538191420.447461) can0 0C2#0000A1063B64
(1538191420.452551) can0 053#009F005C07063B7D
(1538191420.454032) can0 0C7#000000004D063B6B
(1538191420.454945) can0 0C8#0000000F4E063B6C
(1538191420.455864) can0 0C9#000000004F063B6C
(1538191420.456704) can0 0C3#002F030350063B6D
(1538191420.456869) can0 0A0#E96301000001
(1538191420.457569) can0 0C4#02F102BC51063B6E
(1538191420.462580) can0 053#00A0005A06063B87
(1538191420.464015) can0 0CA#FFF7A2063B75
(1538191420.464884) can0 0CB#0000A3063B76
(1538191420.465771) can0 0CC#0000A4063B76
(1538191420.466604) can0 0A0#E96301000001
(1538191420.466847) can0 050#0000083752063B77
(1538191420.467506) can0 051#0000078653063B78
(1538191420.472556) can0 053#00A1005805063B91
(1538191420.474105) can0 0C7#0000000054063B7F
(1538191420.474968) can0 0C8#0000000F55063B80
(1538191420.475892) can0 0C9#0000000056063B80
(1538191420.476653) can0 052#000057063B81
(1538191420.477589) can0 0A0#E96301000001
(1538191420.482566) can0 053#00A2005604063B9B
(1538191420.483978) can0 0CA#0000A5063B89
(1538191420.484875) can0 0CB#0000A6063B8A
(1538191420.485761) can0 0CC#0000A7063B8A
(1538191420.486401) can0 0A0#E96301000001
(1538191420.486605) can0 0C1#0000A8063B8B
(1538191420.487464) can0 0C2#0000A9063B8C
(1538191420.492573) can0 053#00A3005403063BA5
(1538191420.493994) can0 00C#00AA063B93
(1538191420.494185) can0 0C7#FFFFFFF158063B93
(1538191420.495084) can0 0C8#0000000F59063B94
(1538191420.495972) can0 0C9#000000005A063B95
(1538191420.496728) can0 0A0#E96301000001
(1538191420.496962) can0 0C3#004302FB5B063B95
(1538191420.497685) can0 0C4#02F302BC5C063B96
(1538191420.498504) can0 0A1#5A5AAB063B97
(1538191420.502575) can0 053#00A1005202063BAF
(1538191420.503994) can0 0CA#0000AC063B9D
(1538191420.504866) can0 0CB#0000AD063B9E
(1538191420.505761) can0 0CC#0000AE063B9E
(1538191420.506522) can0 0A0#E96301000001
(1538191420.506771) can0 050#000008375D063B9F
(1538191420.507500) can0 051#000007865E063BA0
(1538191420.512556) can0 053#0097005001063BB9
(1538191420.514025) can0 0C7#000000005F063BA7
(1538191420.514935) can0 0C8#0000000F60063BA8
(1538191420.515849) can0 0C9#0000000061063BA8
(1538191420.516357) can0 0A0#E96301000001
(1538191420.516622) can0 052#000062063BA9
(1538191420.522558) can0 053#008C005202063BC3
(1538191420.523996) can0 0CA#0000AF063BB1
(1538191420.524874) can0 0CB#0000B0063BB2
(1538191420.525781) can0 0CC#0000B1063BB2
(1538191420.526605) can0 0C1#0000B2063BB3
(1538191420.527382) can0 0CD#2001
(1538191420.527644) can0 0C2#0000B3063BB4
(1538191420.527842) can0 0A0#E96301000001
(1538191420.528156) can0 0BB#5A
(1538191420.532502) can0 053#0082005403063BCD
(1538191420.534058) can0 0C7#0000000063063BBB
(1538191420.534948) can0 0C8#0000000F64063BBC
(1538191420.535834) can0 0C9#0000000065063BBC
(1538191420.536519) can0 0A0#E96301000001
(1538191420.536754) can0 0C3#005002FA66063BBD
(1538191420.537551) can0 0C4#02F002BB67063BBE
(1538191420.542514) can0 053#007B005604063BD7
(1538191420.544008) can0 0CA#FFF7B4063BC5
(1538191420.544883) can0 0CB#0000B5063BC6
(1538191420.545774) can0 0CC#0000B6063BC6
(1538191420.546653) can0 050#0000083768063BC7
(1538191420.546839) can0 0A0#E96301000001
(1538191420.547507) can0 051#0000078669063BC8
(1538191420.552510) can0 053#0077005805063BE1
(1538191420.554089) can0 0C7#000000006A063BCF
(1538191420.554973) can0 0C8#0000000F6B063BD0
(1538191420.555846) can0 0C9#000000006C063BD0
(1538191420.556559) can0 0A0#E96301000001
(1538191420.556765) can0 052#00006D063BD1
(1538191420.562576) can0 053#007F005A06063BEB
(1538191420.563998) can0 0CA#0000B7063BD9
(1538191420.564881) can0 0CB#0000B8063BDA
(1538191420.565691) can0 0A0#E96301000001
(1538191420.565878) can0 0CC#0000B9063BDA
(1538191420.566640) can0 0C1#0000BA063BDB
(1538191420.567475) can0 0C2#0000BB063BDC
(1538191420.572566) can0 053#0086005C07063BF5
(1538191420.573995) can0 00C#00BC063BE3
(1538191420.574180) can0 0C7#FFFFFFF16E063BE3
(1538191420.575129) can0 0C8#0000000F6F063BE4
(1538191420.576031) can0 0C9#0000000070063BE5
(1538191420.576855) can0 0C3#006502FC71063BE5
(1538191420.577364) can0 0A0#E96301000001
(1538191420.577702) can0 0C4#02F402BD72063BE6
(1538191420.578523) can0 0A1#585ABD063BE7
(1538191420.582585) can0 053#008C005E08063BFF
(1538191420.584001) can0 0CA#0000BE063BED
(1538191420.584890) can0 0CB#0000BF063BEE
(1538191420.585780) can0 0CC#0000C0063BEE
(1538191420.586552) can0 0A0#E96301000001
(1538191420.586816) can0 050#0000083773063BEF
(1538191420.587496) can0 051#0000078674063BF0
(1538191420.592615) can0 053#0090006009063C09
(1538191420.594055) can0 0C7#0000000075063BF7
(1538191420.594944) can0 0C8#0000000F76063BF8
(1538191420.595836) can0 0C9#0000000077063BF8
(1538191420.596474) can0 0A0#E96301000001
(1538191420.596688) can0 052#000078063BF9
(1538191420.602605) can0 053#009300620A063C13
(1538191420.603995) can0 0CA#0000C1063C01
(1538191420.604887) can0 0CB#0000C2063C02
(1538191420.605767) can0 0CC#0000C3063C02
(1538191420.606513) can0 0A0#E96301000001
(1538191420.606722) can0 0C1#0000C4063C03
(1538191420.607463) can0 0C2#0000C5063C04
(1538191420.612567) can0 053#009600640B063C1D
(1538191420.614061) can0 0C7#0000000079063C0B
(1538191420.614945) can0 0C8#0000000F7A063C0C
(1538191420.615850) can0 0C9#000000007B063C0C
(1538191420.616713) can0 0C3#003002FA7C063C0D
(1538191420.616877) can0 0A0#E96301000001
(1538191420.617589) can0 0C4#02EF02BB7D063C0E
(1538191420.622587) can0 053#009900620A063C27
(1538191420.624023) can0 0CA#FFF7C6063C15
(1538191420.624899) can0 0CB#0000C7063C16
(1538191420.625775) can0 0CC#0000C8063C16
(1538191420.626694) can0 050#000008377E063C17
(1538191420.627519) can0 051#000007867F063C18
(1538191420.627602) can0 0CD#2001
(1538191420.628016) can0 0A0#E96301000001
(1538191420.628336) can0 0BB#5A
(1538191420.632560) can0 053#009C006009063C31
(1538191420.634060) can0 0C7#0000000080063C1F
(1538191420.634968) can0 0C8#0000000F81063C20
(1538191420.635845) can0 0C9#0000000082063C20
(1538191420.636594) can0 0A0#E96301000001
(1538191420.636800) can0 052#000083063C21
(1538191420.642561) can0 053#009E005E08063C3B
(1538191420.643996) can0 0CA#0000C9063C29
(1538191420.644888) can0 0CB#0000CA063C2A
(1538191420.645780) can0 0CC#0000CB063C2A
(1538191420.646510) can0 0A0#E96301000001
(1538191420.646711) can0 0C1#0000CC063C2B
(1538191420.647473) can0 0C2#0000CD063C2C
(1538191420.652595) can0 053#009F005C07063C45
(1538191420.653965) can0 00C#00CE063C33
(1538191420.654183) can0 0C7#FFFFFFF184063C33
(1538191420.655095) can0 0C8#0000000F85063C34
(1538191420.655972) can0 0C9#0000000086063C35
(1538191420.656426) can0 0A0#E96301000001
(1538191420.656814) can0 0C3#004A02F587063C35
(1538191420.657681) can0 0C4#02EF02BB88063C36
(1538191420.658505) can0 0A1#585ACF063C37
(1538191420.662582) can0 053#009F005A06063C4F
(1538191420.664010) can0 0CA#0000D0063C3D
(1538191420.664893) can0 0CB#0000D1063C3E
(1538191420.665778) can0 0CC#0000D2063C3E
(1538191420.666582) can0 0A0#E96301000001
(1538191420.666829) can0 050#0000083789063C3F
(1538191420.667524) can0 051#000007868A063C40
(1538191420.672574) can0 053#00A1005805063C59
(1538191420.674088) can0 0C7#000000008B063C47
(1538191420.674957) can0 0C8#0000000F8C063C48
(1538191420.675901) can0 0C9#000000008D063C48
(1538191420.676682) can0 052#00008E063C49
(1538191420.677369) can0 0A0#E96301000001
(1538191420.682592) can0 053#00A2005604063C63
(1538191420.684007) can0 0CA#0000D3063C51
(1538191420.684889) can0 0CB#0000D4063C52
(1538191420.685787) can0 0CC#0000D5063C52
(1538191420.686427) can0 0A0#E96301000001
(1538191420.686631) can0 0C1#0000D6063C53
(1538191420.687477) can0 0C2#0000D7063C54
(1538191420.692593) can0 053#00A3005403063C6D
(1538191420.694042) can0 0C7#000000008F063C5B
(1538191420.694941) can0 0C8#0000000F90063C5C
(1538191420.695844) can0 0C9#0000000091063C5C
(1538191420.696692) can0 0C3#005802FB92063C5D
(1538191420.696882) can0 0A0#E96301000001
(1538191420.697554) can0 0C4#02F002BA93063C5E
(1538191420.702568) can0 053#00A2005202063C77
(1538191420.704025) can0 0CA#FFF7D8063C65
(1538191420.704889) can0 0CB#0000D9063C66
(1538191420.705782) can0 0CC#0000DA063C66
(1538191420.706509) can0 0A0#E96301000001
(1538191420.706757) can0 050#0000083794063C67
(1538191420.707511) can0 051#0000078695063C68
(1538191420.712566) can0 053#0096005001063C81
(1538191420.714110) can0 0C7#0000000096063C6F
(1538191420.714977) can0 0C8#0000000F97063C70
(1538191420.715873) can0 0C9#0000000098063C70
(1538191420.716365) can0 0A0#E96301000001
(1538191420.716638) can0 052#000099063C71
(1538191420.722524) can0 053#008B005202063C8B
(1538191420.724023) can0 0CA#0000DB063C79
(1538191420.724896) can0 0CB#0000DC063C7A
(1538191420.725784) can0 0CC#0000DD063C7A
(1538191420.726624) can0 0C1#0000DE063C7B
(1538191420.727491) can0 0C2#0000DF063C7C
(1538191420.727570) can0 0CD#2001
(1538191420.727984) can0 0A0#E96301000001
(1538191420.728298) can0 0BB#5A
(1538191420.732513) can0 053#0081005403063C95
(1538191420.733989) can0 00C#00E0063C83
(1538191420.734215) can0 0C7#FFFFFFF19A063C83
(1538191420.735085) can0 0C8#0000000F9B063C84
(1538191420.735976) can0 0C9#000000009C063C85
(1538191420.736513) can0 0A0#E96301000001
(1538191420.736820) can0 0C3#004902FC9D063C85
(1538191420.737685) can0 0C4#02F302BD9E063C86
(1538191420.738508) can0 0A1#585AE1063C87
(1538191420.742533) can0 053#007A005604063C9F
(1538191420.744022) can0 0CA#0000E2063C8D
(1538191420.744890) can0 0CB#0000E3063C8E
(1538191420.745786) can0 0CC#0000E4063C8E
(1538191420.746665) can0 050#000008379F063C8F
(1538191420.746844) can0 0A0#E96301000001
(1538191420.747515) can0 051#00000786A0063C90
(1538191420.752591) can0 053#0078005805063CA9
(1538191420.754055) can0 0C7#00000000A1063C97
(1538191420.754946) can0 0C8#0000000FA2063C98
(1538191420.755849) can0 0C9#00000000A3063C98
(1538191420.756474) can0 0A0#E96301000001
(1538191420.756689) can0 052#0000A4063C99
(1538191420.762595) can0 053#0081005A06063CB3
(1538191420.764013) can0 0CA#0000E5063CA1
(1538191420.764905) can0 0CB#0000E6063CA2
(1538191420.765785) can0 0CC#0000E7063CA2
(1538191420.766537) can0 0A0#E96301000001
(1538191420.766742) can0 0C1#0000E8063CA3
(1538191420.767477) can0 0C2#0000E9063CA4
(1538191420.772551) can0 053#0088005C07063CBD
(1538191420.774089) can0 0C7#00000000A5063CAB
(1538191420.774972) can0 0C8#0000000FA6063CAC
(1538191420.775865) can0 0C9#00000000A7063CAC
(1538191420.776716) can0 0C3#005402FCA8063CAD
(1538191420.777440) can0 0A0#E96301000001
(1538191420.777661) can0 0C4#02F302BCA9063CAE
(1538191420.782568) can0 053#008D005E08063CC7
(1538191420.784069) can0 0CA#FFF7EA063CB5
(1538191420.784917) can0 0CB#0000EB063CB6
(1538191420.785823) can0 0CC#0000EC063CB6
(1538191420.786690) can0 050#00000837AA063CB7
(1538191420.786862) can0 0A0#E96301000001
(1538191420.787525) can0 051#00000786AB063CB8
(1538191420.792594) can0 053#0091006009063CD1
(1538191420.794068) can0 0C7#00000000AC063CBF
(1538191420.794956) can0 0C8#0000000FAD063CC0
(1538191420.795874) can0 0C9#00000000AE063CC0
(1538191420.796648) can0 052#0000AF063CC1
(1538191420.796828) can0 0A0#E96301000001
(1538191420.802575) can0 053#009400620A063CDB
(1538191420.803999) can0 0CA#0000ED063CC9
(1538191420.804916) can0 0CB#0000EE063CCA
(1538191420.805779) can0 0CC#0000EF063CCA
(1538191420.806523) can0 0A0#E96301000001
(1538191420.806719) can0 0C1#0000F0063CCB
(1538191420.807474) can0 0C2#0000F1063CCC
(1538191420.812560) can0 053#009600640B063CE5
(1538191420.813979) can0 00C#00F2063CD3
(1538191420.814219) can0 0C7#FFFFFFF1B0063CD3
(1538191420.815097) can0 0C8#0000000FB1063CD4
(1538191420.815990) can0 0C9#00000000B2063CD5
(1538191420.816397) can0 0A0#E96301000001
(1538191420.816833) can0 0C3#00730302B3063CD5
(1538191420.817702) can0 0C4#02F402BCB4063CD6
(1538191420.818521) can0 0A1#585AF3063CD7
(1538191420.822602) can0 053#009900620A063CEF
(1538191420.824048) can0 0CA#0000F4063CDD
(1538191420.824898) can0 0CB#0000F5063CDE
(1538191420.825790) can0 0CC#0000F6063CDE
(1538191420.826676) can0 050#00000837B5063CDF
(1538191420.827521) can0 051#00000786B6063CE0
(1538191420.827593) can0 0CD#2001
(1538191420.828040) can0 0A0#E96301000001
(1538191420.828354) can0 0BB#5A
(1538191420.832558) can0 053#009C006009063CF9
(1538191420.834048) can0 0C7#00000000B7063CE7
(1538191420.834955) can0 0C8#0000000FB8063CE8
(1538191420.835836) can0 0C9#00000000B9063CE8
(1538191420.836644) can0 052#0000BA063CE9
(1538191420.836828) can0 0A0#E96301000001
(1538191420.842589) can0 053#009E005E08063D03
(1538191420.844014) can0 0CA#0000F7063CF1
(1538191420.844901) can0 0CB#0000F8063CF2
(1538191420.845783) can0 0CC#0000F9063CF2
(1538191420.846484) can0 0A0#E96301000001
(1538191420.846689) can0 0C1#0000FA063CF3
(1538191420.847485) can0 0C2#0000FB063CF4
(1538191420.852563) can0 053#009F005C07063D0D
(1538191420.854046) can0 0C7#00000000BB063CFB
(1538191420.854952) can0 0C8#0000000FBC063CFC
(1538191420.855835) can0 0C9#00000000BD063CFC
(1538191420.856326) can0 0A0#E96301000001
(1538191420.856693) can0 0C3#003B0302BE063CFD
(1538191420.857612) can0 0C4#02F602BDBF063CFE
(1538191420.862609) can0 053#00A0005A06063D17
(1538191420.864048) can0 0CA#FFF7FC063D05
(1538191420.864895) can0 0CB#0000FD063D06
(1538191420.865795) can0 0CC#0000FE063D06
(1538191420.866672) can0 050#00000837C0063D07
(1538191420.866849) can0 0A0#E96301000001
(1538191420.867513) can0 051#00000786C1063D08
(1538191420.872568) can0 053#00A1005805063D21
(1538191420.874088) can0 0C7#00000000C2063D0F
(1538191420.874981) can0 0C8#0000000FC3063D10
(1538191420.875893) can0 0C9#00000000C4063D10
(1538191420.876671) can0 052#0000C5063D11
(1538191420.877298) can0 0A0#E96301000001
(1538191420.882603) can0 053#00A2005604063D2B
(1538191420.884003) can0 0CA#0000FF063D19
(1538191420.884934) can0 0CB#000000063D1A
(1538191420.885787) can0 0CC#000001063D1A
(1538191420.886494) can0 0A0#E96301000001
(1538191420.886701) can0 0C1#000002063D1B
(1538191420.887477) can0 0C2#000003063D1C
(1538191420.892566) can0 053#00A3005403063D35
(1538191420.893984) can0 00C#0004063D23
(1538191420.894224) can0 0C7#FFFFFFF1C6063D23
(1538191420.895105) can0 0C8#0000000FC7063D24
(1538191420.895994) can0 0C9#00000000C8063D25
(1538191420.896591) can0 0A0#E96301000001
(1538191420.896847) can0 0C3#001D0304C9063D25
(1538191420.897707) can0 0C4#02F502BCCA063D26
(1538191420.898530) can0 0A1#585A05063D27
(1538191420.902594) can0 053#00A1005202063D3F
(1538191420.904020) can0 0CA#000006063D2D
(1538191420.904946) can0 0CB#000007063D2E
(1538191420.905785) can0 0CC#000008063D2E
(1538191420.906608) can0 0A0#E96301000001
(1538191420.906859) can0 050#00000837CB063D2F
(1538191420.907513) can0 051#00000786CC063D30
(1538191420.912563) can0 053#0096005001063D49
(1538191420.914045) can0 0C7#00000000CD063D37
(1538191420.914946) can0 0C8#0000000FCE063D38
(1538191420.915842) can0 0C9#00000000CF063D38
(1538191420.916370) can0 0A0#E96301000001
(1538191420.916645) can0 052#0000D0063D39
(1538191420.922594) can0 053#008B005202063D53
(1538191420.924020) can0 0CA#000009063D41
(1538191420.924906) can0 0CB#00000A063D42
(1538191420.925781) can0 0CC#00000B063D42
(1538191420.926633) can0 0C1#00000C063D43
(1538191420.927355) can0 0CD#2001
(1538191420.927614) can0 0C2#00000D063D44
(1538191420.927806) can0 0A0#E96301000001
(1538191420.928120) can0 0BB#5A
(1538191420.932518) can0 053#0082005403063D5D
(1538191420.934067) can0 0C7#00000000D1063D4B
(1538191420.934991) can0 0C8#0000000FD2063D4C
(1538191420.935889) can0 0C9#00000000D3063D4C
(1538191420.936542) can0 0A0#E96301000001
(1538191420.936787) can0 0C3#00290303D4063D4D
(1538191420.937574) can0 0C4#02F702BED5063D4E
(1538191420.942539) can0 053#007B005604063D67
(1538191420.944028) can0 0CA#FFF70E063D55
(1538191420.944974) can0 0CB#00000F063D56
(1538191420.945812) can0 0CC#000010063D56
(1538191420.946474) can0 0A0#E96301000001
(1538191420.946718) can0 050#00000837D6063D57
(1538191420.947529) can0 051#00000786D7063D58
(1538191420.952558) can0 053#0078005805063D71
(1538191420.954130) can0 0C7#00000000D8063D5F
(1538191420.954972) can0 0C8#0000000FD9063D60
(1538191420.955868) can0 0C9#00000000DA063D60
(1538191420.956455) can0 0A0#E96301000001
(1538191420.956654) can0 052#0000DB063D61
(1538191420.962616) can0 053#0080005A06063D7B
(1538191420.964013) can0 0CA#000011063D69
(1538191420.964928) can0 0CB#000012063D6A
(1538191420.965788) can0 0CC#000013063D6A
(1538191420.966621) can0 0C1#000014063D6B
(1538191420.966815) can0 0A0#E96301000001
(1538191420.967483) can0 0C2#000015063D6C
(1538191420.972595) can0 053#0087005C07063D85
(1538191420.974003) can0 00C#0016063D73
(1538191420.974215) can0 0C7#FFFFFFF1DC063D73
(1538191420.975125) can0 0C8#0000000FDD063D74
(1538191420.976003) can0 0C9#00000000DE063D75
(1538191420.976885) can0 0C3#001F0305DF063D75
(1538191420.977289) can0 0A0#E96301000001
(1538191420.977749) can0 0C4#02F602BEE0063D76
(1538191420.978583) can0 0A1#5A5A17063D77
(1538191420.982626) can0 053#008C005E08063D8F
(1538191420.984020) can0 0CA#000018063D7D
(1538191420.984899) can0 0CB#000019063D7E
(1538191420.985790) can0 0CC#00001A063D7E
(1538191420.986459) can0 0A0#E96301000001
(1538191420.986699) can0 050#00000837E1063D7F
(1538191420.987512) can0 051#00000786E2063D80
(1538191420.992590) can0 053#0090006009063D99
(1538191420.994049) can0 0C7#00000000E3063D87
(1538191420.994982) can0 0C8#0000000FE4063D88
(1538191420.995839) can0 0C9#00000000E5063D88
(1538191420.996651) can0 052#0000E6063D89
(1538191420.996839) can0 0A0#E96301000001
(1538191421.002615) can0 053#009300620A063DA3
(1538191421.004010) can0 0CA#00001B063D91
(1538191421.004900) can0 0CB#00001C063D92
(1538191421.005784) can0 0CC#00001D063D92
(1538191421.006505) can0 0A0#E96301000001
(1538191421.006704) can0 0C1#00001E063D93
(1538191421.007487) can0 0C2#00001F063D94
(1538191421.012552) can0 053#009600640B063DAD
(1538191421.014064) can0 0C7#00000000E7063D9B
(1538191421.014969) can0 0C8#0000000FE8063D9C
(1538191421.015855) can0 0C9#00000000E9063D9C
(1538191421.016326) can0 0A0#E96301000001
(1538191421.016707) can0 0C3#000A0307EA063D9D
(1538191421.017605) can0 0C4#02F602BDEB063D9E
(1538191421.022621) can0 053#009900620A063DB7
(1538191421.024070) can0 0CA#FFF720063DA5
(1538191421.024913) can0 0CB#000021063DA6
(1538191421.025796) can0 0CC#000022063DA6
(1538191421.026688) can0 050#00000837EC063DA7
(1538191421.027538) can0 051#00000786ED063DA8
(1538191421.027617) can0 0CD#2001
(1538191421.028058) can0 0A0#E96301000001
(1538191421.028380) can0 0BB#5A
(1538191421.032587) can0 053#009C006009063DC1
(1538191421.034083) can0 0C7#00000000EE063DAF
(1538191421.034980) can0 0C8#0000000FEF063DB0
(1538191421.035882) can0 0C9#00000000F0063DB0
(1538191421.036602) can0 0A0#E96301000001
(1538191421.036801) can0 052#0000F1063DB1
(1538191421.042558) can0 053#009E005E08063DCB
(1538191421.044000) can0 0CA#000023063DB9
(1538191421.044898) can0 0CB#000024063DBA
(1538191421.045785) can0 0CC#000025063DBA
(1538191421.046554) can0 0A0#E96301000001
(1538191421.046761) can0 0C1#000026063DBB
(1538191421.047483) can0 0C2#000027063DBC
(1538191421.052588) can0 053#009F005C07063DD5
(1538191421.054016) can0 00C#0028063DC3
(1538191421.054221) can0 0C7#FFFFFFF1F2063DC3
(1538191421.055111) can0 0C8#0000000FF3063DC4
(1538191421.055997) can0 0C9#00000000F4063DC5
(1538191421.056527) can0 0A0#E96301000001
(1538191421.056851) can0 0C3#000E02FDF5063DC5
(1538191421.057713) can0 0C4#02F302BEF6063DC6
(1538191421.058532) can0 0A1#585A29063DC7
(1538191421.062572) can0 053#00A0005A06063DDF
(1538191421.064059) can0 0CA#00002A063DCD
(1538191421.064929) can0 0CB#00002B063DCE
(1538191421.065805) can0 0CC#00002C063DCE
(1538191421.066686) can0 050#00000837F7063DCF
(1538191421.066869) can0 0A0#E96301000001
(1538191421.067542) can0 051#00000786F8063DD0
(1538191421.072558) can0 053#00A1005805063DE9
(1538191421.074099) can0 0C7#00000000F9063DD7
(1538191421.074978) can0 0C8#0000000FFA063DD8
(1538191421.075879) can0 0C9#00000000FB063DD8
(1538191421.076756) can0 052#0000FC063DD9
(1538191421.076833) can0 0A0#E96301000001
(1538191421.082601) can0 053#00A2005604063DF3
(1538191421.084071) can0 0CA#00002D063DE1
(1538191421.084925) can0 0CB#00002E063DE2
(1538191421.085815) can0 0CC#00002F063DE2
(1538191421.086484) can0 0A0#E96301000001
(1538191421.086677) can0 0C1#000030063DE3
(1538191421.087503) can0 0C2#000031063DE4
(1538191421.092590) can0 053#00A3005403063DFD
(1538191421.094071) can0 0C7#00000000FD063DEB
(1538191421.094982) can0 0C8#0000000FFE063DEC
(1538191421.095865) can0 0C9#00000000FF063DEC
(1538191421.096716) can0 0C3#0030030000063DED
(1538191421.096898) can0 0A0#E96301000001
(1538191421.097578) can0 0C4#02F302BC01063DEE
(1538191421.102578) can0 053#00A0005202063E07
(1538191421.104036) can0 0CA#FFF732063DF5
(1538191421.104925) can0 0CB#000033063DF6
(1538191421.105805) can0 0CC#000034063DF6
(1538191421.106539) can0 0A0#E96301000001
(1538191421.106784) can0 050#0000083702063DF7
(1538191421.107537) can0 051#0000078603063DF8
(1538191421.112527) can0 053#0095005001063E11
(1538191421.114093) can0 0C7#0000000004063DFF
(1538191421.114985) can0 0C8#0000000F05063E00
(1538191421.115896) can0 0C9#0000000006063E00
(1538191421.116685) can0 052#000007063E01
(1538191421.116904) can0 0A0#E96301000001
(1538191421.122510) can0 053#008A005202063E1B
(1538191421.124022) can0 0CA#000035063E09
(1538191421.124922) can0 0CB#000036063E0A
(1538191421.125808) can0 0CC#000037063E0A
(1538191421.126671) can0 0C1#000038063E0B
(1538191421.127414) can0 0CD#2001
(1538191421.127672) can0 0C2#000039063E0C
(1538191421.127870) can0 0A0#E96301000001
(1538191421.128195) can0 0BB#5A
(1538191421.132534) can0 053#0081005403063E25
(1538191421.133991) can0 00C#003A063E13
(1538191421.134238) can0 0C7#FFFFFFF108063E13
(1538191421.135101) can0 0C8#0000000F09063E14
(1538191421.135998) can0 0C9#000000000A063E15
(1538191421.136485) can0 0A0#E96301000001
(1538191421.136853) can0 0C3#001802FC0B063E15
(1538191421.137715) can0 0C4#02F202BC0C063E16
(1538191421.138536) can0 0A1#5A5A3B063E17
(1538191421.142592) can0 053#007A005604063E2F
(1538191421.144041) can0 0CA#00003C063E1D
(1538191421.144940) can0 0CB#00003D063E1E
(1538191421.145815) can0 0CC#00003E063E1E
(1538191421.146397) can0 0A0#E96301000001
(1538191421.146688) can0 050#000008370D063E1F
(1538191421.147542) can0 051#000007860E063E20
(1538191421.152579) can0 053#0078005805063E39
(1538191421.154100) can0 0C7#000000000F063E27
(1538191421.155005) can0 0C8#0000000F10063E28
(1538191421.155890) can0 0C9#0000000011063E28
(1538191421.156682) can0 052#000012063E29
(1538191421.156857) can0 0A0#E96301000001
(1538191421.162617) can0 053#0080005A06063E43
(1538191421.164089) can0 0CA#00003F063E31
(1538191421.164942) can0 0CB#000040063E32
(1538191421.165811) can0 0CC#000041063E32
(1538191421.166588) can0 0A0#E96301000001
(1538191421.166782) can0 0C1#000042063E33
(1538191421.167506) can0 0C2#000043063E34
(1538191421.172580) can0 053#0087005C07063E4D
(1538191421.174083) can0 0C7#0000000013063E3B
(1538191421.174965) can0 0C8#0000000F14063E3C
(1538191421.175884) can0 0C9#0000000015063E3C
(1538191421.176705) can0 0A0#E96301000001
(1538191421.176917) can0 0C3#004802FB16063E3D
(1538191421.177599) can0 0C4#02F302BD17063E3E
(1538191421.182585) can0 053#008D005E08063E57
(1538191421.184037) can0 0CA#FFF744063E45
(1538191421.184915) can0 0CB#000045063E46
(1538191421.185808) can0 0CC#000046063E46
(1538191421.186500) can0 0A0#E96301000001
(1538191421.186749) can0 050#0000083718063E47
(1538191421.187577) can0 051#0000078619063E48
(1538191421.192600) can0 053#0090006009063E61
(1538191421.194090) can0 0C7#000000001A063E4F
(1538191421.195024) can0 0C8#0000000F1B063E50
(1538191421.195482) can0 0A0#E96301000001
(1538191421.195855) can0 0C9#000000001C063E50
(1538191421.196696) can0 052#00001D063E51
(1538191421.202560) can0 053#009300620A063E6B
(1538191421.204018) can0 0CA#000047063E59
(1538191421.204919) can0 0CB#000048063E5A
(1538191421.205790) can0 0CC#000049063E5A
(1538191421.205970) can0 0A0#E96301000001
(1538191421.206652) can0 0C1#00004A063E5B
(1538191421.207508) can0 0C2#00004B063E5C
(1538191421.212562) can0 053#009600640B063E75
(1538191421.213990) can0 00C#004C063E63
(1538191421.214213) can0 0C7#FFFFFFF11E063E63
(1538191421.215111) can0 0C8#0000000F1F063E64
(1538191421.215708) can0 0A0#E96301000001
(1538191421.215984) can0 0C9#0000000020063E65
(1538191421.216872) can0 0C3#005D02F921063E65
(1538191421.217717) can0 0C4#02F202BC22063E66
(1538191421.218534) can0 0A1#5A5A4D063E67
(1538191421.222572) can0 053#009900620A063E7F
(1538191421.224046) can0 0CA#00004E063E6D
(1538191421.224937) can0 0CB#00004F063E6E
(1538191421.225799) can0 0CC#000050063E6E
(1538191421.226709) can0 050#0000083723063E6F
(1538191421.227158) can0 0CD#2001
(1538191421.227549) can0 051#0000078624063E70
(1538191421.227740) can0 0A0#E96301000001
(1538191421.228121) can0 0BB#5A
(1538191421.232592) can0 053#009C006009063E89
(1538191421.234073) can0 0C7#0000000025063E77
(1538191421.235046) can0 0C8#0000000F26063E78
(1538191421.235849) can0 0C9#0000000027063E78
(1538191421.236061) can0 0A0#E96301000001
(1538191421.236678) can0 052#000028063E79
(1538191421.242578) can0 053#009E005E08063E93
(1538191421.244030) can0 0CA#000051063E81
(1538191421.244972) can0 0CB#000052063E82
(1538191421.245810) can0 0CC#000053063E82
(1538191421.245973) can0 0A0#E96301000001
(1538191421.246654) can0 0C1#000054063E83
(1538191421.247511) can0 0C2#000055063E84
(1538191421.252596) can0 053#009F005C07063E9D
(1538191421.254074) can0 0C7#0000000029063E8B
(1538191421.254982) can0 0C8#0000000F2A063E8C
(1538191421.255848) can0 0C9#000000002B063E8C
(1538191421.256044) can0 0A0#E96301000001
(1538191421.256727) can0 0C3#004502FB2C063E8D
(1538191421.257592) can0 0C4#02F002BA2D063E8E
(1538191421.262589) can0 053#00A0005A06063EA7
(1538191421.264034) can0 0CA#FFF756063E95
(1538191421.264932) can0 0CB#000057063E96
(1538191421.265796) can0 0CC#000058063E96
(1538191421.265969) can0 0A0#E96301000001
(1538191421.266698) can0 050#000008372E063E97
(1538191421.267541) can0 051#000007862F063E98
(1538191421.272570) can0 053#00A1005805063EB1
(1538191421.274128) can0 0C7#0000000030063E9F
(1538191421.275003) can0 0C8#0000000F31063EA0
(1538191421.275888) can0 0C9#0000000032063EA0
(1538191421.276047) can0 0A0#E96301000001
(1538191421.276715) can0 052#000033063EA1
(1538191421.282602) can0 053#00A2005604063EBB
(1538191421.284085) can0 0CA#000059063EA9
(1538191421.284935) can0 0CB#00005A063EAA
(1538191421.285796) can0 0CC#00005B063EAA
(1538191421.285982) can0 0A0#E96301000001
(1538191421.286657) can0 0C1#00005C063EAB
(1538191421.287517) can0 0C2#00005D063EAC
(1538191421.292608) can0 053#00A3005403063EC5
(1538191421.294001) can0 00C#005E063EB3
(1538191421.294225) can0 0C7#FFFFFFF134063EB3
(1538191421.295118) can0 0C8#0000000F35063EB4
(1538191421.295910) can0 0A0#E96301000001
(1538191421.296154) can0 0C9#0000000036063EB5
(1538191421.296871) can0 0C3#004E02F937063EB5
(1538191421.297736) can0 0C4#02F202BA38063EB6
(1538191421.298550) can0 0A1#5A5A5F063EB7
(1538191421.302596) can0 053#00A0005202063ECF
(1538191421.304044) can0 0CA#000060063EBD
(1538191421.304935) can0 0CB#000061063EBE
(1538191421.305836) can0 0CC#000062063EBE
(1538191421.306056) can0 0A0#E96301000001
(1538191421.306710) can0 050#0000083739063EBF
(1538191421.307555) can0 051#000007863A063EC0
(1538191421.312498) can0 053#0095005001063ED9
(1538191421.314124) can0 0C7#000000003B063EC7
(1538191421.315042) can0 0C8#0000000F3C063EC8
(1538191421.315881) can0 0C9#000000003D063EC8
(1538191421.316069) can0 0A0#E96301000001
(1538191421.316742) can0 052#00003E063EC9
(1538191421.322537) can0 053#008A005202063EE3
(1538191421.324077) can0 0CA#000063063ED1
(1538191421.324941) can0 0CB#000064063ED2
(1538191421.325804) can0 0CC#000065063ED2
(1538191421.326639) can0 0C1#000066063ED3
(1538191421.326774) can0 0CD#2001
(1538191421.327193) can0 0A0#E96301000001
(1538191421.327515) can0 0C2#000067063ED4
(1538191421.327578) can0 0BB#5A
(1538191421.332519) can0 053#0081005403063EED
(1538191421.334111) can0 0C7#000000003F063EDB
(1538191421.335023) can0 0C8#0000000F40063EDC
(1538191421.335884) can0 0C9#0000000041063EDC
(1538191421.336068) can0 0A0#E96301000001
(1538191421.336766) can0 0C3#002B02F942063EDD
(1538191421.337631) can0 0C4#02EF02BA43063EDE
(1538191421.342531) can0 053#007A005604063EF7
(1538191421.344053) can0 0CA#FFF768063EE5
(1538191421.344962) can0 0CB#000069063EE6
(1538191421.345805) can0 0CC#00006A063EE6
(1538191421.345996) can0 0A0#E96301000001
(1538191421.346714) can0 050#0000083744063EE7
(1538191421.347557) can0 051#0000078645063EE8
(1538191421.352593) can0 053#0077005805063F01
(1538191421.354124) can0 0C7#0000000046063EEF
(1538191421.355012) can0 0C8#0000000F47063EF0
(1538191421.355888) can0 0C9#0000000048063EF0
(1538191421.356081) can0 0A0#E96301000001
(1538191421.356711) can0 052#000049063EF1
(1538191421.362586) can0 053#0080005A06063F0B
(1538191421.364037) can0 0CA#00006B063EF9
(1538191421.364933) can0 0CB#00006C063EFA
(1538191421.365810) can0 0CC#00006D063EFA
(1538191421.365979) can0 0A0#E96301000001
(1538191421.366679) can0 0C1#00006E063EFB
(1538191421.367521) can0 0C2#00006F063EFC
(1538191421.372565) can0 053#0087005C07063F15
(1538191421.374041) can0 00C#0070063F03
(1538191421.374247) can0 0C7#FFFFFFF14A063F03
(1538191421.375174) can0 0C8#0000000F4B063F04
(1538191421.376038) can0 0C9#000000004C063F05
(1538191421.376218) can0 0A0#E96301000001
(1538191421.376938) can0 0C3#002402F54D063F05
(1538191421.377792) can0 0C4#02ED02BA4E063F06
(1538191421.378597) can0 0A1#5A5A71063F07
(1538191421.382585) can0 053#008D005E08063F1F
(1538191421.384062) can0 0CA#000072063F0D
(1538191421.384970) can0 0CB#000073063F0E
(1538191421.385805) can0 0CC#000074063F0E
(1538191421.385992) can0 0A0#E96301000001
(1538191421.386717) can0 050#000008374F063F0F
(1538191421.387563) can0 051#0000078650063F10
(1538191421.392588) can0 053#0091006009063F29
(1538191421.394085) can0 0C7#0000000051063F17
(1538191421.395029) can0 0C8#0000000F52063F18
(1538191421.395909) can0 0C9#0000000053063F18
(1538191421.396072) can0 0A0#E96301000001
(1538191421.396718) can0 052#000054063F19
(1538191421.402587) can0 053#009400620A063F33
(1538191421.404043) can0 0CA#000075063F21
(1538191421.404946) can0 0CB#000076063F22
(1538191421.405795) can0 0CC#000077063F22
(1538191421.405979) can0 0A0#E96301000001
(1538191421.406667) can0 0C1#000078063F23
(1538191421.407518) can0 0C2#000079063F24
(1538191421.412580) can0 053#009600640B063F3D
(1538191421.414119) can0 0C7#0000000055063F2B
(1538191421.415035) can0 0C8#0000000F56063F2C
(1538191421.415904) can0 0C9#0000000057063F2C
(1538191421.416098) can0 0A0#E96301000001
(1538191421.416805) can0 0C3#002802F858063F2D
(1538191421.417637) can0 0C4#02ED02BA59063F2E
(1538191421.422577) can0 053#009900620A063F47
(1538191421.424048) can0 0CA#FFF77A063F35
(1538191421.424940) can0 0CB#00007B063F36
(1538191421.425812) can0 0CC#00007C063F36
(1538191421.426698) can0 050#000008375A063F37
(1538191421.426813) can0 0CD#2001
(1538191421.427228) can0 0A0#E96301000001
(1538191421.427617) can0 051#000007865B063F38
(1538191421.427685) can0 0BB#5A
(1538191421.432576) can0 053#009B006009063F51
(1538191421.434089) can0 0C7#000000005C063F3F
(1538191421.435016) can0 0C8#0000000F5D063F40
(1538191421.435887) can0 0C9#000000005E063F40
(1538191421.436073) can0 0A0#E96301000001
(1538191421.436747) can0 052#00005F063F41
(1538191421.442571) can0 053#009D005E08063F5B
(1538191421.444031) can0 0CA#00007D063F49
(1538191421.444949) can0 0CB#00007E063F4A
(1538191421.445799) can0 0CC#00007F063F4A
(1538191421.445985) can0 0A0#E96301000001
(1538191421.446669) can0 0C1#000080063F4B
(1538191421.447523) can0 0C2#000081063F4C
(1538191421.452591) can0 053#009E005C07063F65
(1538191421.454015) can0 00C#0082063F53
(1538191421.454234) can0 0C7#FFFFFFF160063F53
(1538191421.455163) can0 0C8#0000000F61063F54
(1538191421.455816) can0 0A0#E96301000001
(1538191421.456072) can0 0C9#0000000062063F55
(1538191421.456904) can0 0C3#006302FB63063F55
(1538191421.457761) can0 0C4#02F102BC64063F56
(1538191421.458581) can0 0A1#5A5A83063F57
(1538191421.462577) can0 053#009F005A06063F6F
(1538191421.464052) can0 0CA#000084063F5D
(1538191421.464994) can0 0CB#000085063F5E
(1538191421.465816) can0 0CC#000086063F5E
(1538191421.466007) can0 0A0#E96301000001
(1538191421.466732) can0 050#0000083765063F5F
(1538191421.467591) can0 051#0000078666063F60
(1538191421.472555) can0 053#00A1005805063F79
(1538191421.474121) can0 0C7#0000000067063F67
(1538191421.475036) can0 0C8#0000000F68063F68
(1538191421.475938) can0 0C9#0000000069063F68
(1538191421.476750) can0 052#00006A063F69
(1538191421.477712) can0 0A0#E96301000001
(1538191421.482599) can0 053#00A2005604063F83
(1538191421.484069) can0 0CA#000087063F71
(1538191421.484960) can0 0CB#000088063F72
(1538191421.485849) can0 0CC#000089063F72
(1538191421.486680) can0 0C1#00008A063F73
(1538191421.486868) can0 0A0#E96301000001
(1538191421.487553) can0 0C2#00008B063F74
(1538191421.492606) can0 053#00A2005403063F8D
(1538191421.494081) can0 0C7#000000006B063F7B
(1538191421.495012) can0 0C8#0000000F6C063F7C
(1538191421.495929) can0 0C9#000000006D063F7C
(1538191421.496772) can0 0C3#003602F76E063F7D
(1538191421.497165) can0 0A0#E96301000001
(1538191421.497625) can0 0C4#02F002BB6F063F7E
(1538191421.502592) can0 053#00A1005202063F97
(1538191421.504103) can0 0CA#FFF78C063F85
(1538191421.504990) can0 0CB#00008D063F86
(1538191421.505888) can0 0CC#00008E063F86
(1538191421.506761) can0 050#0000083770063F87
(1538191421.506945) can0 0A0#E96301000001
(1538191421.507605) can0 051#0000078671063F88
(1538191421.512509) can0 053#0096005001063FA1
(1538191421.514122) can0 0C7#0000000072063F8F
(1538191421.515025) can0 0C8#0000000F73063F90
(1538191421.515954) can0 0C9#0000000074063F90
(1538191421.516730) can0 052#000075063F91
(1538191421.516907) can0 0A0#E96301000001
(1538191421.522519) can0 053#008B005202063FAB
(1538191421.524096) can0 0CA#00008F063F99
(1538191421.524987) can0 0CB#000090063F9A
(1538191421.525870) can0 0CC#000091063F9A
(1538191421.526715) can0 0C1#000092063F9B
(1538191421.527327) can0 0CD#2001
(1538191421.527579) can0 0C2#000093063F9C
(1538191421.527757) can0 0A0#E96301000001
(1538191421.528062) can0 0BB#5A
(1538191421.532536) can0 053#0081005403063FB5
(1538191421.534006) can0 00C#0094063FA3
(1538191421.534225) can0 0C7#FFFFFFF176063FA3
(1538191421.535152) can0 0C8#0000000F77063FA4
(1538191421.536077) can0 0C9#0000000078063FA5
(1538191421.536650) can0 0A0#E96301000001
(1538191421.536895) can0 0C3#002B02FB79063FA5
(1538191421.537764) can0 0C4#02F102BB7A063FA6
(1538191421.538580) can0 0A1#5A5A95063FA7
(1538191421.542571) can0 053#007A005604063FBF
(1538191421.544088) can0 0CA#000096063FAD
(1538191421.544976) can0 0CB#000097063FAE
(1538191421.545885) can0 0CC#000098063FAE
(1538191421.546609) can0 0A0#E96301000001
(1538191421.546857) can0 050#000008377B063FAF
(1538191421.547601) can0 051#000007867C063FB0
(1538191421.552591) can0 053#0077005805063FC9
(1538191421.554121) can0 0C7#000000007D063FB7
(1538191421.555033) can0 0C8#0000000F7E063FB8
(1538191421.555921) can0 0C9#000000007F063FB8
(1538191421.556434) can0 0A0#E96301000001
(1538191421.556714) can0 052#000080063FB9
(1538191421.562594) can0 053#007F005A06063FD3
(1538191421.564048) can0 0CA#000099063FC1
(1538191421.564977) can0 0CB#00009A063FC2
(1538191421.565889) can0 0CC#00009B063FC2
(1538191421.566529) can0 0A0#E96301000001
(1538191421.566738) can0 0C1#00009C063FC3
(1538191421.567574) can0 0C2#00009D063FC4
(1538191421.572575) can0 053#0086005C07063FDD
(1538191421.574140) can0 0C7#0000000081063FCB
(1538191421.575043) can0 0C8#0000000F82063FCC
(1538191421.575948) can0 0C9#0000000083063FCC
(1538191421.576805) can0 0C3#004202FC84063FCD
(1538191421.577255) can0 0A0#E96301000001
(1538191421.577646) can0 0C4#02F202BB85063FCE
(1538191421.582595) can0 053#008C005E08063FE7
(1538191421.584068) can0 0CA#FFF79E063FD5
(1538191421.584994) can0 0CB#00009F063FD6
(1538191421.585878) can0 0CC#0000A0063FD6
(1538191421.586446) can0 0A0#E96301000001
(1538191421.586760) can0 050#0000083786063FD7
(1538191421.587634) can0 051#0000078687063FD8
(1538191421.592600) can0 053#0090006009063FF1
(1538191421.594110) can0 0C7#0000000088063FDF
(1538191421.595031) can0 0C8#0000000F89063FE0
(1538191421.595921) can0 0C9#000000008A063FE0
(1538191421.596682) can0 0A0#E96301000001
(1538191421.596899) can0 052#00008B063FE1
(1538191421.602565) can0 053#009300620A063FFB
(1538191421.604036) can0 0CA#0000A1063FE9
(1538191421.604983) can0 0CB#0000A2063FEA
(1538191421.605867) can0 0CC#0000A3063FEA
(1538191421.606504) can0 0A0#E96301000001
(1538191421.606714) can0 0C1#0000A4063FEB
(1538191421.607586) can0 0C2#0000A5063FEC
(1538191421.612626) can0 053#009600640B064005
(1538191421.614039) can0 00C#00A6063FF3
(1538191421.614249) can0 0C7#FFFFFFF18C063FF3
(1538191421.615183) can0 0C8#0000000F8D063FF4
(1538191421.616066) can0 0C9#000000008E063FF5
(1538191421.616460) can0 0A0#E96301000001
(1538191421.616920) can0 0C3#003E03008F063FF5
(1538191421.617783) can0 0C4#02F502BE90063FF6
(1538191421.618602) can0 0A1#5A5AA7063FF7
(1538191421.622583) can0 053#009900620A06400F
(1538191421.624070) can0 0CA#0000A8063FFD
(1538191421.625000) can0 0CB#0000A9063FFE
(1538191421.625885) can0 0CC#0000AA063FFE
(1538191421.626782) can0 050#0000083791063FFF
(1538191421.627420) can0 0CD#2001
(1538191421.627667) can0 051#0000078692064000
(1538191421.627857) can0 0A0#E96301000001
(1538191421.628160) can0 0BB#5A
(1538191421.632557) can0 053#009C006009064019
(1538191421.634075) can0 0C7#0000000093064007
(1538191421.635009) can0 0C8#0000000F94064008
(1538191421.635898) can0 0C9#0000000095064008
(1538191421.636563) can0 0A0#E96301000001
(1538191421.636776) can0 052#000096064009
(1538191421.642584) can0 053#009F005E08064023
(1538191421.644048) can0 0CA#0000AB064011
(1538191421.645002) can0 0CB#0000AC064012
(1538191421.645876) can0 0CC#0000AD064012
(1538191421.646538) can0 0A0#E96301000001
(1538191421.646752) can0 0C1#0000AE064013
(1538191421.647592) can0 0C2#0000AF064014
(1538191421.652626) can0 053#009F005C0706402D
(1538191421.654120) can0 0C7#000000009706401B
(1538191421.655026) can0 0C8#0000000F9806401C
(1538191421.655914) can0 0C9#000000009906401C
(1538191421.656441) can0 0A0#E96301000001
(1538191421.656763) can0 0C3#005003029A06401D
(1538191421.657628) can0 0C4#02F402BD9B06401E
(1538191421.662596) can0 053#00A0005A06064037
(1538191421.664066) can0 0CA#FFF7B0064025
(1538191421.665000) can0 0CB#0000B1064026
(1538191421.665887) can0 0CC#0000B2064026
(1538191421.666447) can0 0A0#E96301000001
(1538191421.666759) can0 050#000008379C064027
(1538191421.667615) can0 051#000007869D064028
(1538191421.672635) can0 053#00A1005805064041
(1538191421.674147) can0 0C7#000000009E06402F
(1538191421.675030) can0 0C8#0000000F9F064030
(1538191421.675944) can0 0C9#00000000A0064030
(1538191421.676766) can0 052#0000A1064031
(1538191421.677831) can0 0A0#E96301000001
(1538191421.682577) can0 053#00A200560406404B
(1538191421.684102) can0 0CA#0000B3064039
(1538191421.685011) can0 0CB#0000B406403A
(1538191421.685868) can0 0CC#0000B506403A
(1538191421.686709) can0 0A0#E96301000001
(1538191421.686896) can0 0C1#0000B606403B
(1538191421.687610) can0 0C2#0000B706403C
(1538191421.692575) can0 053#00A3005403064055
(1538191421.694024) can0 00C#00B8064043
(1538191421.694258) can0 0C7#FFFFFFF1A2064043
(1538191421.695168) can0 0C8#0000000FA3064044
(1538191421.696058) can0 0C9#00000000A4064045
(1538191421.696639) can0 0A0#E96301000001
(1538191421.696910) can0 0C3#00170302A5064045
(1538191421.697773) can0 0C4#02F302BDA6064046
(1538191421.698595) can0 0A1#5A5AB9064047
(1538191421.702586) can0 053#009D00520206405F
(1538191421.704066) can0 0CA#0000BA06404D
(1538191421.704995) can0 0CB#0000BB06404E
(1538191421.705882) can0 0CC#0000BC06404E
(1538191421.706602) can0 0A0#E96301000001
(1538191421.706844) can0 050#00000837A706404F
(1538191421.707613) can0 051#00000786A8064050
(1538191421.712515) can0 053#0092005001064069
(1538191421.714126) can0 0C7#00000000A9064057
(1538191421.715039) can0 0C8#0000000FAA064058
(1538191421.715926) can0 0C9#00000000AB064058
(1538191421.716342) can0 0A0#E96301000001
(1538191421.716728) can0 052#0000AC064059
(1538191421.722532) can0 053#0088005202064073
(1538191421.724104) can0 0CA#0000BD064061
(1538191421.725039) can0 0CB#0000BE064062
(1538191421.725927) can0 0CC#0000BF064062
(1538191421.726763) can0 0C1#0000C0064063
(1538191421.727600) can0 0C2#0000C1064064
(1538191421.727667) can0 0CD#2001
(1538191421.728089) can0 0A0#E96301000001
(1538191421.728388) can0 0BB#5A
(1538191421.732523) can0 053#008000540306407D
(1538191421.734087) can0 0C7#00000000AD06406B
(1538191421.735055) can0 0C8#0000000FAE06406C
(1538191421.735924) can0 0C9#00000000AF06406C
(1538191421.736720) can0 0A0#E96301000001
(1538191421.736961) can0 0C3#00610304B006406D
(1538191421.737625) can0 0C4#02F602BEB106406E
(1538191421.742527) can0 053#0079005604064087
(1538191421.744069) can0 0CA#FFF7C2064075
(1538191421.745023) can0 0CB#0000C3064076
(1538191421.745890) can0 0CC#0000C4064076
(1538191421.746508) can0 0A0#E96301000001
(1538191421.746764) can0 050#00000837B2064077
(1538191421.747671) can0 051#00000786B3064078
(1538191421.752573) can0 053#0076005805064091
(1538191421.754152) can0 0C7#00000000B406407F
(1538191421.755025) can0 0C8#0000000FB5064080
(1538191421.755936) can0 0C9#00000000B6064080
(1538191421.756462) can0 0A0#E96301000001
(1538191421.756726) can0 052#0000B7064081
(1538191421.762565) can0 053#007F005A0606409B
(1538191421.764064) can0 0CA#0000C5064089
(1538191421.765053) can0 0CB#0000C606408A
(1538191421.765892) can0 0CC#0000C706408A
(1538191421.766404) can0 0A0#E96301000001
(1538191421.766721) can0 0C1#0000C806408B
(1538191421.767587) can0 0C2#0000C906408C
(1538191421.772589) can0 053#0087005C070640A5
(1538191421.774084) can0 00C#00CA064093
(1538191421.774260) can0 0C7#FFFFFFF1B8064093
(1538191421.775221) can0 0C8#0000000FB9064094
(1538191421.776095) can0 0C9#00000000BA064095
(1538191421.776792) can0 0A0#E96301000001
(1538191421.777016) can0 0C3#00160302BB064095
(1538191421.777813) can0 0C4#02F502BDBC064096
(1538191421.778636) can0 0A1#5A5ACB064097
(1538191421.782623) can0 053#008C005E080640AF
(1538191421.784110) can0 0CA#0000CC06409D
(1538191421.785076) can0 0CB#0000CD06409E
(1538191421.785903) can0 0CC#0000CE06409E
(1538191421.786569) can0 0A0#E96301000001
(1538191421.786809) can0 050#00000837BD06409F
(1538191421.787631) can0 051#00000786BE0640A0
(1538191421.792595) can0 053#00900060090640B9
(1538191421.794094) can0 0C7#00000000BF0640A7
(1538191421.795032) can0 0C8#0000000FC00640A8
(1538191421.795934) can0 0C9#00000000C10640A8
(1538191421.796657) can0 0A0#E96301000001
(1538191421.796859) can0 052#0000C20640A9
(1538191421.802587) can0 053#009300620A0640C3
(1538191421.804063) can0 0CA#0000CF0640B1
(1538191421.805025) can0 0CB#0000D00640B2
(1538191421.805925) can0 0CC#0000D10640B2
(1538191421.806543) can0 0A0#E96301000001
(1538191421.806753) can0 0C1#0000D20640B3
(1538191421.807586) can0 0C2#0000D30640B4
(1538191421.812589) can0 053#009600640B0640CD
(1538191421.814121) can0 0C7#00000000C30640BB
(1538191421.815006) can0 0C8#0000000FC40640BC
(1538191421.815953) can0 0C9#00000000C50640BC
(1538191421.816344) can0 0A0#E96301000001
(1538191421.816771) can0 0C3#00160302C60640BD
(1538191421.817643) can0 0C4#02F602BCC70640BE
(1538191421.822607) can0 053#009900620A0640D7
(1538191421.824125) can0 0CA#FFF7D40640C5
(1538191421.825009) can0 0CB#0000D50640C6
(1538191421.825899) can0 0CC#0000D60640C6
(1538191421.826810) can0 050#00000837C80640C7
(1538191421.827408) can0 0CD#2001
(1538191421.827660) can0 051#00000786C90640C8
(1538191421.827841) can0 0A0#E96301000001
(1538191421.828155) can0 0BB#5A
(1538191421.832571) can0 053#009B0060090640E1
(1538191421.834108) can0 0C7#00000000CA0640CF
(1538191421.835059) can0 0C8#0000000FCB0640D0
(1538191421.835935) can0 0C9#00000000CC0640D0
(1538191421.836614) can0 0A0#E96301000001
(1538191421.836839) can0 052#0000CD0640D1
(1538191421.842569) can0 053#009E005E080640EB
(1538191421.844059) can0 0CA#0000D70640D9
(1538191421.845056) can0 0CB#0000D80640DA
(1538191421.845942) can0 0CC#0000D90640DA
(1538191421.846688) can0 0A0#E96301000001
(1538191421.846906) can0 0C1#0000DA0640DB
(1538191421.847593) can0 0C2#0000DB0640DC
(1538191421.852589) can0 053#009E005C070640F5
(1538191421.854032) can0 00C#00DC0640E3
(1538191421.854267) can0 0C7#FFFFFFF1CE0640E3
(1538191421.855174) can0 0C8#0000000FCF0640E4
(1538191421.856080) can0 0C9#00000000D00640E5
(1538191421.856447) can0 0A0#E96301000001
(1538191421.856947) can0 0C3#003502F9D10640E5
(1538191421.857817) can0 0C4#02F302BDD20640E6
(1538191421.858629) can0 0A1#5A5ADD0640E7
(1538191421.862608) can0 053#009F005A060640FF
(1538191421.864122) can0 0CA#0000DE0640ED
(1538191421.865023) can0 0CB#0000DF0640EE
(1538191421.865938) can0 0CC#0000E00640EE
(1538191421.866788) can0 050#00000837D30640EF
(1538191421.866974) can0 0A0#E96301000001
(1538191421.867629) can0 051#00000786D40640F0
(1538191421.872604) can0 053#00A0005805064109
(1538191421.874180) can0 0C7#00000000D50640F7
(1538191421.875062) can0 0C8#0000000FD60640F8
(1538191421.875956) can0 0C9#00000000D70640F8
(1538191421.876750) can0 052#0000D80640F9
(1538191421.876946) can0 0A0#E96301000001
(1538191421.882613) can0 053#00A2005604064113
(1538191421.884093) can0 0CA#0000E1064101
(1538191421.885024) can0 0CB#0000E2064102
(1538191421.885908) can0 0CC#0000E3064102
(1538191421.886458) can0 0A0#E96301000001
(1538191421.886736) can0 0C1#0000E4064103
(1538191421.887602) can0 0C2#0000E5064104
(1538191421.892596) can0 053#00A200540306411D
(1538191421.894099) can0 0C7#00000000D906410B
(1538191421.895019) can0 0C8#0000000FDA06410C
(1538191421.895923) can0 0C9#00000000DB06410C
(1538191421.896676) can0 0A0#E96301000001
(1538191421.896922) can0 0C3#005F02FCDC06410D
(1538191421.897635) can0 0C4#02F302BCDD06410E
(1538191421.902602) can0 053#00A1005202064127
(1538191421.904101) can0 0CA#FFF7E6064115
(1538191421.905000) can0 0CB#0000E7064116
(1538191421.905895) can0 0CC#0000E8064116
(1538191421.906785) can0 050#00000837DE064117
(1538191421.906956) can0 0A0#E96301000001
(1538191421.907635) can0 051#00000786DF064118
(1538191421.912536) can0 053#0096005001064131
(1538191421.914133) can0 0C7#00000000E006411F
(1538191421.915023) can0 0C8#0000000FE1064120
(1538191421.915936) can0 0C9#00000000E2064120
(1538191421.916476) can0 0A0#E96301000001
(1538191421.916734) can0 052#0000E3064121
(1538191421.922544) can0 053#008A00520206413B
(1538191421.924125) can0 0CA#0000E9064129
(1538191421.925011) can0 0CB#0000EA06412A
(1538191421.925904) can0 0CC#0000EB06412A
(1538191421.926750) can0 0C1#0000EC06412B
(1538191421.927433) can0 0CD#2001
(1538191421.927687) can0 0C2#0000ED06412C
(1538191421.927879) can0 0A0#E96301000001
(1538191421.928220) can0 0BB#5A
(1538191421.932516) can0 053#0081005403064145
(1538191421.934041) can0 00C#00EE064133
(1538191421.934261) can0 0C7#FFFFFFF1E4064133
(1538191421.935160) can0 0C8#0000000FE5064134
(1538191421.936076) can0 0C9#00000000E6064135
(1538191421.936554) can0 0A0#E96301000001
(1538191421.936925) can0 0C3#002302FFE7064135
(1538191421.937789) can0 0C4#02F502BDE8064136
(1538191421.938607) can0 0A1#5A5AEF064137
(1538191421.942538) can0 053#007A00560406414F
(1538191421.944102) can0 0CA#0000F006413D
(1538191421.945020) can0 0CB#0000F106413E
(1538191421.945910) can0 0CC#0000F206413E
(1538191421.946610) can0 0A0#E96301000001
(1538191421.946854) can0 050#00000837E906413F
(1538191421.947644) can0 051#00000786EA064140
(1538191421.952593) can0 053#0079005805064159
(1538191421.954143) can0 0C7#00000000EB064147
(1538191421.955017) can0 0C8#0000000FEC064148
(1538191421.955929) can0 0C9#00000000ED064148
(1538191421.956476) can0 0A0#E96301000001
(1538191421.956727) can0 052#0000EE064149
(1538191421.962586) can0 053#0081005A06064163
(1538191421.964091) can0 0CA#0000F3064151
(1538191421.965021) can0 0CB#0000F4064152
(1538191421.965912) can0 0CC#0000F5064152
(1538191421.966544) can0 0A0#E96301000001
(1538191421.966759) can0 0C1#0000F6064153
(1538191421.967609) can0 0C2#0000F7064154
(1538191421.972581) can0 053#0088005C0706416D
(1538191421.974137) can0 0C7#00000000EF06415B
(1538191421.975032) can0 0C8#0000000FF006415C
(1538191421.975953) can0 0C9#00000000F106415C
(1538191421.976835) can0 0C3#00490302F206415D
(1538191421.976984) can0 0A0#E96301000001
(1538191421.977675) can0 0C4#02F502BEF306415E
(1538191421.982601) can0 053#008D005E08064177
(1538191421.984114) can0 0CA#FFF7F8064165
(1538191421.984990) can0 0CB#0000F9064166
(1538191421.985907) can0 0CC#0000FA064166
(1538191421.986785) can0 050#00000837F4064167
(1538191421.986964) can0 0A0#E96301000001
(1538191421.987634) can0 051#00000786F5064168
(1538191421.992582) can0 053#0091006009064181
(1538191421.994139) can0 0C7#00000000F606416F
(1538191421.995048) can0 0C8#0000000FF7064170
(1538191421.995949) can0 0C9#00000000F8064170
(1538191421.996584) can0 0A0#E96301000001
(1538191421.996809) can0 052#0000F9064171
(1538191422.002576) can0 053#009400620A06418B
(1538191422.004089) can0 0CA#0000FB064179
(1538191422.004991) can0 0CB#0000FC06417A
(1538191422.005924) can0 0CC#0000FD06417A
(1538191422.006531) can0 0A0#E96301000001
(1538191422.006751) can0 0C1#0000FE06417B
(1538191422.007623) can0 0C2#0000FF06417C
(1538191422.012563) can0 053#009700640B064195
(1538191422.014056) can0 00C#0000064183
(1538191422.014271) can0 0C7#FFFFFFF1FA064183
(1538191422.015190) can0 0C8#0000000FFB064184
(1538191422.016092) can0 0C9#00000000FC064185
(1538191422.016465) can0 0A0#E96301000001
(1538191422.016932) can0 0C3#003002FEFD064185
(1538191422.017797) can0 0C4#02F002BBFE064186
(1538191422.018613) can0 0A1#5A5A01064187
(1538191422.022618) can0 053#009A00620A06419F
(1538191422.024128) can0 0CA#00000206418D
(1538191422.025000) can0 0CB#00000306418E
(1538191422.025936) can0 0CC#00000406418E
(1538191422.026833) can0 050#00000837FF06418F
(1538191422.027485) can0 0CD#2001
(1538191422.027725) can0 051#0000078600064190
(1538191422.027930) can0 0A0#E96301000001
(1538191422.028253) can0 0BB#5A
(1538191422.032560) can0 053#009C0060090641A9
(1538191422.034111) can0 0C7#0000000001064197
(1538191422.035056) can0 0C8#0000000F02064198
(1538191422.035948) can0 0C9#0000000003064198
(1538191422.036610) can0 0A0#E96301000001
(1538191422.036820) can0 052#000004064199
(1538191422.042611) can0 053#009E005E080641B3
(1538191422.044182) can0 0CA#0000050641A1
(1538191422.045058) can0 0CB#0000060641A2
(1538191422.045951) can0 0CC#0000070641A2
(1538191422.046582) can0 0A0#E96301000001
(1538191422.046806) can0 0C1#0000080641A3
(1538191422.047636) can0 0C2#0000090641A4
(1538191422.052587) can0 053#009F005C070641BD
(1538191422.054108) can0 0C7#00000000050641AB
(1538191422.055026) can0 0C8#0000000F060641AC
(1538191422.055968) can0 0C9#00000000070641AC
(1538191422.056346) can0 0A0#E96301000001
(1538191422.056786) can0 0C3#005802F9080641AD
(1538191422.057652) can0 0C4#02EF02BB090641AE
(1538191422.062566) can0 053#00A0005A060641C7
(1538191422.064096) can0 0CA#FFF70A0641B5
(1538191422.065006) can0 0CB#00000B0641B6
(1538191422.065943) can0 0CC#00000C0641B6
(1538191422.066479) can0 0A0#E96301000001
(1538191422.066817) can0 050#000008370A0641B7
(1538191422.067675) can0 051#000007860B0641B8
(1538191422.072587) can0 053#00A10058050641D1
(1538191422.074191) can0 0C7#000000000C0641BF
(1538191422.075054) can0 0C8#0000000F0D0641C0
(1538191422.075997) can0 0C9#000000000E0641C0
(1538191422.076793) can0 052#00000F0641C1
(1538191422.077220) can0 0A0#E96301000001
(1538191422.082614) can0 053#00A20056040641DB
(1538191422.084092) can0 0CA#00000D0641C9
(1538191422.085014) can0 0CB#00000E0641CA
(1538191422.085946) can0 0CC#00000F0641CA
(1538191422.086475) can0 0A0#E96301000001
(1538191422.086783) can0 0C1#0000100641CB
(1538191422.087648) can0 0C2#0000110641CC
(1538191422.092588) can0 053#00A30054030641E5
(1538191422.094042) can0 00C#00120641D3
(1538191422.094285) can0 0C7#FFFFFFF1100641D3
(1538191422.095162) can0 0C8#0000000F110641D4
(1538191422.096088) can0 0C9#00000000120641D5
(1538191422.096648) can0 0A0#E96301000001
(1538191422.096922) can0 0C3#006602F7130641D5
(1538191422.097801) can0 0C4#02EF02BC140641D6
(1538191422.098618) can0 0A1#5A5A130641D7
(1538191422.102582) can0 053#00A00052020641EF
(1538191422.104087) can0 0CA#0000140641DD
(1538191422.104993) can0 0CB#0000150641DE
(1538191422.105932) can0 0CC#0000160641DE
(1538191422.106594) can0 0A0#E96301000001
(1538191422.106833) can0 050#00000837150641DF
(1538191422.107666) can0 051#00000786160641E0
(1538191422.112529) can0 053#00950050010641F9
(1538191422.114145) can0 0C7#00000000170641E7
(1538191422.115037) can0 0C8#0000000F180641E8
(1538191422.115960) can0 0C9#00000000190641E8
(1538191422.116420) can0 0A0#E96301000001
(1538191422.116762) can0 052#00001A0641E9
(1538191422.122556) can0 053#008A005202064203
(1538191422.124082) can0 0CA#0000170641F1
(1538191422.125008) can0 0CB#0000180641F2
(1538191422.125932) can0 0CC#0000190641F2
(1538191422.126785) can0 0C1#00001A0641F3
(1538191422.127413) can0 0CD#2001
(1538191422.127673) can0 0C2#00001B0641F4
(1538191422.127862) can0 0A0#E96301000001
(1538191422.128183) can0 0BB#5A
(1538191422.132522) can0 053#008100540306420D
(1538191422.134119) can0 0C7#000000001B0641FB
(1538191422.135033) can0 0C8#0000000F1C0641FC
(1538191422.135954) can0 0C9#000000001D0641FC
(1538191422.136472) can0 0A0#E96301000001
(1538191422.136820) can0 0C3#005402FC1E0641FD
(1538191422.137674) can0 0C4#02F202BD1F0641FE
(1538191422.142559) can0 053#007A005604064217
(1538191422.144109) can0 0CA#FFF71C064205
(1538191422.144995) can0 0CB#00001D064206
(1538191422.145940) can0 0CC#00001E064206
(1538191422.146642) can0 0A0#E96301000001
(1538191422.146875) can0 050#0000083720064207
(1538191422.147663) can0 051#0000078621064208
(1538191422.152585) can0 053#0076005805064221
(1538191422.154146) can0 0C7#000000002206420F
(1538191422.155033) can0 0C8#0000000F23064210
(1538191422.155941) can0 0C9#0000000024064210
(1538191422.156410) can0 0A0#E96301000001
(1538191422.156756) can0 052#000025064211
(1538191422.162580) can0 053#007F005A0606422B
(1538191422.164071) can0 0CA#00001F064219
(1538191422.164990) can0 0CB#00002006421A
(1538191422.165928) can0 0CC#00002106421A
(1538191422.166458) can0 0A0#E96301000001
(1538191422.166763) can0 0C1#00002206421B
(1538191422.167631) can0 0C2#00002306421C
(1538191422.172607) can0 053#0086005C07064235
(1538191422.174067) can0 00C#0024064223
(1538191422.174255) can0 0C7#FFFFFFF126064223
(1538191422.175234) can0 0C8#0000000F27064224
(1538191422.176113) can0 0C9#0000000028064225
(1538191422.176976) can0 0C3#006C030229064225
(1538191422.177375) can0 0A0#E96301000001
(1538191422.177813) can0 0C4#02F202BD2A064226
(1538191422.178667) can0 0A1#5A5A25064227
(1538191422.182610) can0 053#008C005E0806423F
(1538191422.184100) can0 0CA#00002606422D
(1538191422.185014) can0 0CB#00002706422E
(1538191422.185942) can0 0CC#00002806422E
(1538191422.186446) can0 0A0#E96301000001
(1538191422.186820) can0 050#000008372B06422F
(1538191422.187673) can0 051#000007862C064230
(1538191422.192584) can0 053#0090006009064249
(1538191422.194116) can0 0C7#000000002D064237
(1538191422.195029) can0 0C8#0000000F2E064238
(1538191422.195919) can0 0C9#000000002F064238
(1538191422.196485) can0 0A0#E96301000001
(1538191422.196750) can0 052#000030064239
(1538191422.202579) can0 053#009300620A064253
(1538191422.204073) can0 0CA#000029064241
(1538191422.204989) can0 0CB#00002A064242
(1538191422.205934) can0 0CC#00002B064242
(1538191422.206484) can0 0A0#E96301000001
(1538191422.206769) can0 0C1#00002C064243
(1538191422.207634) can0 0C2#00002D064244
(1538191422.212563) can0 053#009600640B06425D
(1538191422.214119) can0 0C7#000000003106424B
(1538191422.215041) can0 0C8#0000000F3206424C
(1538191422.215926) can0 0C9#000000003306424C
(1538191422.216349) can0 0A0#E96301000001
(1538191422.216798) can0 0C3#002902FF3406424D
(1538191422.217666) can0 0C4#02F302BC3506424E
(1538191422.222592) can0 053#009900620A064267
(1538191422.224130) can0 0CA#FFF72E064255
(1538191422.225000) can0 0CB#00002F064256
(1538191422.225930) can0 0CC#000030064256
(1538191422.226835) can0 050#0000083736064257
(1538191422.227496) can0 0CD#2001
(1538191422.227754) can0 051#0000078637064258
(1538191422.227935) can0 0A0#E96301000001
(1538191422.228244) can0 0BB#5A
(1538191422.232579) can0 053#009B006009064271
(1538191422.234141) can0 0C7#000000003806425F
(1538191422.235032) can0 0C8#0000000F39064260
(1538191422.235928) can0 0C9#000000003A064260
(1538191422.236572) can0 0A0#E96301000001
(1538191422.236777) can0 052#00003B064261
(1538191422.242581) can0 053#009E005E0806427B
(1538191422.244070) can0 0CA#000031064269
(1538191422.245010) can0 0CB#00003206426A
(1538191422.245935) can0 0CC#00003306426A
(1538191422.246539) can0 0A0#E96301000001
(1538191422.246765) can0 0C1#00003406426B
(1538191422.247641) can0 0C2#00003506426C
(1538191422.252602) can0 053#009E005C07064285
(1538191422.254089) can0 00C#0036064273
(1538191422.254300) can0 0C7#FFFFFFF13C064273
(1538191422.255188) can0 0C8#0000000F3D064274
(1538191422.256068) can0 0C9#000000003E064275
(1538191422.256601) can0 0A0#E96301000001
(1538191422.256956) can0 0C3#001802FB3F064275
(1538191422.257821) can0 0C4#02F002BD40064276
(1538191422.258641) can0 0A1#5A5A37064277
(1538191422.262593) can0 053#009F005A0606428F
(1538191422.264099) can0 0CA#00003806427D
(1538191422.265023) can0 0CB#00003906427E
(1538191422.265947) can0 0CC#00003A06427E
(1538191422.266721) can0 0A0#E96301000001
(1538191422.266968) can0 050#000008374106427F
(1538191422.267683) can0 051#0000078642064280
(1538191422.272577) can0 053#00A0005805064299
(1538191422.274238) can0 0C7#0000000043064287
(1538191422.275098) can0 0C8#0000000F44064288
(1538191422.275999) can0 0C9#0000000045064288
(1538191422.276822) can0 052#000046064289
(1538191422.277214) can0 0A0#E96301000001
(1538191422.282625) can0 053#00A20056040642A3
(1538191422.284091) can0 0CA#00003B064291
(1538191422.285002) can0 0CB#00003C064292
(1538191422.285943) can0 0CC#00003D064292
(1538191422.286788) can0 0C1#00003E064293
(1538191422.287672) can0 0C2#00003F064294
(1538191422.287854) can0 0A0#E96301000001
(1538191422.292604) can0 053#00A20054030642AD
(1538191422.294126) can0 0C7#000000004706429B
(1538191422.295040) can0 0C8#0000000F4806429C
(1538191422.295929) can0 0C9#000000004906429C
(1538191422.296552) can0 0A0#E96301000001
(1538191422.296803) can0 0C3#002203004A06429D
(1538191422.297676) can0 0C4#02F402BC4B06429E
(1538191422.302573) can0 053#00A10052020642B7
(1538191422.304085) can0 0CA#FFF7400642A5
(1538191422.305021) can0 0CB#0000410642A6
(1538191422.305932) can0 0CC#0000420642A6
(1538191422.306593) can0 0A0#E96301000001
(1538191422.306839) can0 050#000008374C0642A7
(1538191422.307673) can0 051#000007864D0642A8
