(1638973128.973117) can0 225#054552
(1638973128.973118) can0 243#41016DFF75FF9899
(1638973128.973118) can0 264#29000000A000
(1638973128.973118) can0 129#FA244F200020FF3F
(1638973128.973119) can0 2B4#80ED27D000
(1638973128.976941) can0 2F9#98FB072000000000
(1638973128.976942) can0 2C1#04C8480300104048
(1638973128.976942) can0 201#0400000000000000
(1638973128.976942) can0 227#C603160035000081
(1638973128.976943) can0 247#A20EFF0500BA0000
(1638973128.978015) can0 409#00
(1638973128.978016) can0 1FA#3AC001
(1638973128.978017) can0 283#2E2900004100
(1638973128.978017) can0 3E8#0300000000000000
(1638973128.978017) can0 13D#00000000FF00
(1638973128.978018) can0 420#2801404B0090
(1638973128.981842) can0 718#04FFFF00000000
(1638973128.981843) can0 441#DCC54420DB0E1CC4
(1638973128.981844) can0 321#6BA9A55A025850E1
(1638973128.981844) can0 677#FBFFFFFFFFFFFF27
(1638973128.981845) can0 3F9#0400000000000000
(1638973128.983859) can0 400#00E0FBBEEFFB00
(1638973128.983860) can0 132#1D92A9FFA83FFF0F
(1638973128.983861) can0 1FB#00FFFFFFFFFFFFFF
(1638973128.983862) can0 3C0#0400000000000000
(1638973128.983862) can0 261#03000000004034B8
(1638973128.985813) can0 129#ED254F200020FF3F
(1638973128.985814) can0 249#E8010000
(1638973128.985815) can0 242#1095
(1638973128.985815) can0 7A8#50F5016400004010
(1638973128.985816) can0 339#5F41020080034006
(1638973128.987714) can0 103#12310000B80C2102
(1638973128.987715) can0 263#0134BF64E6BBD302
(1638973128.987716) can0 13D#00000000FF00
(1638973128.987716) can0 2C1#0500000000000000
(1638973128.987717) can0 2E1#FC1BC24AAACA0A00
(1638973128.991705) can0 287#61596965EB021210
(1638973128.991706) can0 201#0500000000000000
(1638973128.991707) can0 360#0400000000000000
(1638973128.991707) can0 132#1D92B7FFB33FFF0F
(1638973128.991708) can0 123#00004212D2000000
(1638973128.993606) can0 372#0800000000000000
(1638973128.993608) can0 719#0286521C00000000
(1638973128.993609) can0 129#5E264F20FF1FFF3F
(1638973128.993610) can0 228#0316544C54808138
(1638973128.993611) can0 282#8C70C2093C64F224
(1638973129.023979) can0 677#040F000000000000
(1638973129.023983) can0 221#410155000000E09A
(1638973129.023983) can0 381#336400CC35000000
(1638973129.023984) can0 3A3#04D0000008
(1638973129.023985) can0 13D#00000000FF00
(1638973129.024098) can0 102#12310000F82A2108
(1638973129.024099) can0 23E#1DC672E1010228A1
(1638973129.024099) can0 545#600331F0ABC93A7C
(1638973129.024100) can0 1F9#000000000000
(1638973129.024100) can0 2C1#0600000040000000
(1638973129.024203) can0 39D#265D012800
(1638973129.024204) can0 39A#FDFDFDFDFD010002
(1638973129.024206) can0 6E8#0100000000000000
(1638973129.024207) can0 281#1600FF1F0001
(1638973129.024208) can0 132#1F92AAFFAD3FFF0F
(1638973129.027312) can0 243#FEFFEB0C04010000
(1638973129.027313) can0 393#0600187908C01E20
(1638973129.027314) can0 129#20274F200020FF3F
(1638973129.027314) can0 201#0600000000000000
(1638973129.027316) can0 2E1#0500000000000000
(1638973129.031196) can0 439#0000002000001301
(1638973129.031198) can0 122#00004212D200
(1638973129.031199) can0 3A2#0000734A05004A62
(1638973129.031199) can0 20C#2798340A37013010
(1638973129.031200) can0 13D#00000000FF00
(1638973129.033238) can0 2E8#C20000000000B05C
(1638973129.033239) can0 119#0000
(1638973129.033240) can0 2C1#0700000000000000
(1638973129.033240) can0 3A1#08620B98005802FD
(1638973129.033240) can0 132#2892ABFFBE3FFF0F
(1638973129.037425) can0 272#0600198908C01E20
(1638973129.037426) can0 3E3#0000
(1638973129.037427) can0 340#0800000000000000
(1638973129.037427) can0 677#05FE3F2700000000
(1638973129.037428) can0 129#F7284F200020FF3F
(1638973129.038994) can0 7AA#B6FD9F1C40AEAD02
(1638973129.038995) can0 78A#0100020000006C5D
(1638973129.038996) can0 261#0010A9005F4040D9
(1638973129.038996) can0 4E3#0400000000000000
(1638973129.038997) can0 263#0200000078273200
(1638973129.041078) can0 13D#00000000FF00
(1638973129.041079) can0 201#18671C00B4230300
(1638973129.041080) can0 2B3#034444EA00500000
(1638973129.041080) can0 3C2#0055555500005505
(1638973129.041081) can0 448#000010100000
(1638973129.045203) can0 1F8#3A000000
(1638973129.045204) can0 2E1#1021041E94450604
(1638973129.045204) can0 2D2#182FB14E0000A101
(1638973129.045205) can0 212#9804F60F02FF3F02
(1638973129.045205) can0 252#0000D6060000A00F
(1638973129.047551) can0 292#CADEFA6CB30C4A00
(1638973129.047552) can0 2F2#1201
(1638973129.047562) can0 2E3#94D26187190600
(1638973129.047562) can0 7E8#0D2953CB51000000
(1638973129.047563) can0 25B#D3C002000000F0E0
(1638973129.048734) can0 132#2692B4FFC83FFF0F
(1638973129.048735) can0 129#A2294F200020FF3F
(1638973129.048736) can0 241#3D3C560F8F5500
(1638973129.048736) can0 2C1#208E3811911F0000
(1638973129.048737) can0 22A#00006917
(1638973129.051648) can0 3E2#401500E0500F00
(1638973129.051649) can0 379#010070809A191601
(1638973129.051651) can0 343#0090643EA9030000
(1638973129.051651) can0 75D#F5DF000000000000
(1638973129.051652) can0 677#F8FFFFFFFFFFFF3F
(1638973129.053544) can0 21D#0400B40000000000
(1638973129.053545) can0 718#007F7F7FFFFFFF
(1638973129.053545) can0 13D#00000000FF00
(1638973129.053546) can0 25D#C74801CC406101C0
(1638973129.053546) can0 27D#0000000000000000
(1638973129.055664) can0 3C8#0400000000000000
(1638973129.055665) can0 29D#00000020
(1638973129.055667) can0 2BD#00000000
(1638973129.055667) can0 41D#00
(1638973129.055668) can0 43D#00000000FF00
(1638973129.055669) can0 77D#110000
(1638973129.055670) can0 7DD#FF0001
(1638973129.057586) can0 39A#3447F796FFFDFD31
(1638973129.057587) can0 113#019701
(1638973129.057588) can0 201#010064FFFF0F0000
(1638973129.057588) can0 545#010000000010409B
(1638973129.057589) can0 132#1C92AEFFAA3FFF0F
(1638973129.061469) can0 1FB#01FEFFB76D0B0000
(1638973129.061470) can0 3A2#A503000000000000
(1638973129.061470) can0 2D1#7F01
(1638973129.061471) can0 38A#0300000000000000
(1638973129.061471) can0 13D#00000000FF00
(1638973129.063898) can0 473#30000000770DB261
(1638973129.063900) can0 3B3#8080052001005000
(1638973129.063901) can0 419#00
(1638973129.063901) can0 201#0300000000000000
(1638973129.063902) can0 2C1#0300406600502100
(1638973129.067372) can0 677#02FFFFFFFF000000
(1638973129.067373) can0 422#000010000000
(1638973129.067374) can0 2A8#C20000000000C02C
(1638973129.067374) can0 39A#FDFDFDFDFD010002
(1638973129.067375) can0 3A1#C3FFFF0100001068
(1638973129.069232) can0 132#2692AFFF9D3FFF0F
(1638973129.069233) can0 129#FE2D4F200020FF3F
(1638973129.069234) can0 207#0042362E27000000
(1638973129.069234) can0 545#02004900000050E5
(1638973129.069235) can0 13D#00000000FF00
(1638973129.071195) can0 2E1#036D990218430000
(1638973129.071196) can0 421#000A0010000000
(1638973129.071197) can0 2C2#2080009B01008069
(1638973129.071197) can0 3C2#2955000000000000
(1638973129.071198) can0 428#000010100000
(1638973129.073135) can0 381#F57FFF03602C0000
(1638973129.073136) can0 2C4#D780000004802000
(1638973129.073137) can0 204#010000FF00000010
(1638973129.073137) can0 2C1#04C8480300104048
(1638973129.073138) can0 132#1B92A9FFA83FFF0F
(1638973129.075269) can0 224#0408004019011008
(1638973129.075270) can0 225#054552
(1638973129.075270) can0 264#29000000A000
(1638973129.075271) can0 2B4#81ED27C600
(1638973129.075271) can0 129#482E4F20FF1FFF3F
(1638973129.077079) can0 201#0400000000000000
(1638973129.077080) can0 2F9#98FB072800000000
(1638973129.077080) can0 677#FBFFFFFFFFFFFF27
(1638973129.077081) can0 227#C303150035000081
(1638973129.077081) can0 247#A30EFF0500BA0000
(1638973129.079190) can0 409#00
(1638973129.079191) can0 1FA#3AC001
(1638973129.079192) can0 283#2E2900004100
(1638973129.079193) can0 263#003AC163E8BCD500
(1638973129.079194) can0 13D#00000000FF00
(1638973129.079195) can0 3E8#0400000000000000
(1638973129.083019) can0 39D#285F012800
(1638973129.083021) can0 3F9#0500000000000000
(1638973129.083021) can0 400#08E0FBBEEFFB00
(1638973129.083022) can0 261#56FE28B1925C64C0
(1638973129.083022) can0 132#2B92B6FFB83FFF0F
(1638973129.084837) can0 1FB#00FFFFFFFFFFFFFF
(1638973129.084838) can0 3C0#0500000000000000
(1638973129.084839) can0 129#D02F4F200020FF3F
(1638973129.084839) can0 249#D3030000
(1638973129.084839) can0 2C1#0500000000000000
(1638973129.086966) can0 2E1#FC1BC34AAACD0A00
(1638973129.086967) can0 242#1095
(1638973129.086967) can0 7A8#01000000FFA10800
(1638973129.086968) can0 339#5F41020080034006
(1638973129.086968) can0 103#12310000B80C2102
(1638973129.089895) can0 13D#00000000FF00
(1638973129.089896) can0 201#0500000000000000
(1638973129.089896) can0 287#61596965EB021310
(1638973129.089897) can0 39A#3447FB96FFFDFD31
(1638973129.089897) can0 360#0500000000000000
(1638973129.091797) can0 677#040F000000000000
(1638973129.091799) can0 132#1792AFFFB03FFF0F
(1638973129.091799) can0 123#00004212D2000000
(1638973129.091800) can0 243#FEFFEB0C04010000
(1638973129.091800) can0 372#0A19A2D1896AA202
(1638973129.093761) can0 719#0100000000000000
(1638973129.093762) can0 129#35204F200020FF3F
(1638973129.093762) can0 228#0316544C54809148
(1638973129.093763) can0 282#9470C2093864F224
(1638973129.093763) can0 2C1#0600000040000000
(1638973129.097738) can0 221#41015500000000BA
(1638973129.097739) can0 3A3#04D0000008
(1638973129.097740) can0 13D#00000000FF00
(1638973129.097740) can0 545#A0033140ACCE6A42
(1638973129.097741) can0 102#12310000F82A2108
(1638973129.099688) can0 1F9#000000000000
(1638973129.099690) can0 2E1#0500000000000000
(1638973129.099690) can0 6E8#401E008E01000000
(1638973129.099691) can0 281#1500FF1F0001
(1638973129.099692) can0 201#0600000000000000
(1638973129.101615) can0 132#1892A5FFB33FFF0F
(1638973129.101616) can0 393#0980630000000000
(1638973129.101616) can0 129#22214F200020FF3F
(1638973129.101617) can0 439#0000002000001301
(1638973129.101617) can0 122#00004212D200
(1638973129.105596) can0 3A2#00A072441D004A62
(1638973129.105597) can0 381#1600000000000000
(1638973129.105598) can0 20C#2598340A37013010
(1638973129.105598) can0 263#0134BF64E6BBD302
(1638973129.105598) can0 13D#00000000FF00
(1638973129.107519) can0 2B3#049F9FA59E000000
(1638973129.107520) can0 2C1#0700000000000000
(1638973129.107521) can0 677#05FE3F2700000000
(1638973129.107521) can0 333#8410890702
(1638973129.107522) can0 334#3F3FC800E13FD06D
(1638973129.110496) can0 2E8#C20000000000C06C
(1638973129.110497) can0 119#0000
(1638973129.110497) can0 3A1#08620B980058221D
(1638973129.110498) can0 132#1A92B8FFBE3FFF0F
(1638973129.110498) can0 272#0980630000000000
(1638973129.110500) can0 3E3#0000
(1638973129.111485) can0 340#0000000000000000
(1638973129.111487) can0 129#6B224F200020FF3F
(1638973129.111487) can0 3AA#0000000000000000
(1638973129.111488) can0 310#0D030000A5FD621A
(1638973129.111488) can0 76A#00914AA402000000
(1638973129.113699) can0 261#03000000004074F8
(1638973129.113700) can0 7AA#07B1FFB1FF7FFF00
(1638973129.113701) can0 78A#010003000000745E
(1638973129.113701) can0 201#18671C00B4230300
(1638973129.113702) can0 2E1#1021041E94450604
(1638973129.115399) can0 4E3#D50730B103310000
(1638973129.115400) can0 448#000010100000
(1638973129.115400) can0 13D#00000000FF00
(1638973129.115401) can0 3C2#0055555500005505
(1638973129.115401) can0 23E#1DC672E1050258D5
(1638973129.118361) can0 1F8#3A000000
(1638973129.118363) can0 2C1#208E3811911F0000
(1638973129.118363) can0 39D#1950012800
(1638973129.118363) can0 39A#FDFDFDFDFD010002
(1638973129.118364) can0 25B#D3C00200000000F0
(1638973129.120433) can0 132#1F92AAFF993FFF0F
(1638973129.120434) can0 212#9804F60F02FF3F02
(1638973129.120434) can0 243#408290A0934E0E29
(1638973129.120435) can0 252#0000D6060000A00F
(1638973129.120435) can0 292#CADEFA6CB30C4A00
(1638973129.123436) can0 129#7C234F200020FF3F
(1638973129.123437) can0 2D2#182FB14E0000A101
(1638973129.123438) can0 241#3D3C560F8F5500
(1638973129.123438) can0 2E3#07145040010000
(1638973129.123439) can0 2F2#1201
(1638973129.125668) can0 677#F8FFFFFFFFFFFF3F
(1638973129.125669) can0 22A#00006917
(1638973129.125670) can0 3E2#401500E0500F00
(1638973129.125670) can0 379#020078809A191601
(1638973129.125671) can0 343#0090580EA9000000
(1638973129.125672) can0 41D#00
(1638973129.127519) can0 718#02FFFFFFFFFFFF
(1638973129.127521) can0 21D#0400B40000000000
(1638973129.127521) can0 43D#00000000FF00
(1638973129.127522) can0 13D#00000000FF00
(1638973129.127522) can0 25D#C74801CC406101C0
(1638973129.129351) can0 77D#110000
(1638973129.129352) can0 27D#0000000000000000
(1638973129.129352) can0 3C8#0500000000000000
(1638973129.129353) can0 29D#00000020
(1638973129.129353) can0 201#010064FFFF0F0000
(1638973129.129355) can0 2BD#00000000
(1638973129.133205) can0 7DD#FF0001
(1638973129.133207) can0 545#01000000001070CB
(1638973129.133208) can0 113#019701
(1638973129.133208) can0 2C1#0100001428006400
(1638973129.133209) can0 2E1#290AAB8105000000
(1638973129.135289) can0 132#1D92B1FFBF3FFF0F
(1638973129.135290) can0 1FB#01FEFFB76D0B0000
(1638973129.135291) can0 3C3#5555550100000000
(1638973129.135291) can0 7FF#033108A160420011
(1638973129.135292) can0 129#57244F200120FF3F
(1638973129.137118) can0 249#D3040000
(1638973129.137119) can0 318#150C300E081215A9
(1638973129.137119) can0 54F#0000000000000000
(1638973129.137120) can0 458#02020080000000
(1638973129.137120) can0 2F1#0510C00035000100
(1638973129.140073) can0 382#31141C0000
(1638973129.140074) can0 788#B61E00001D96E702
(1638973129.140075) can0 263#0200000078273200
(1638973129.140075) can0 553#00000000000090E8
(1638973129.140076) can0 13D#00000000FF00
(1638973129.142222) can0 3DA#0000000000000000
(1638973129.142223) can0 677#01FFFFFFFFFFFF00
(1638973129.142223) can0 4E2#D5074D0102390000
(1638973129.142224) can0 132#2092B6FFA33FFF0F
(1638973129.142224) can0 372#0B231A11242251FE
(1638973129.144162) can0 383#7500520008202003
(1638973129.144164) can0 129#ED254F200020FF3F
(1638973129.144164) can0 2C1#02AB835100930000
(1638973129.144164) can0 201#E20F40C104C00C01
(1638973129.144165) can0 282#8129140A19017A00
(1638973129.147140) can0 381#1700000000000000
(1638973129.147141) can0 37A#0000000000000000
(1638973129.147141) can0 288#0316548C5480A1F8
(1638973129.147142) can0 3F5#00C8180900000000
(1638973129.147142) can0 221#404105050050110F
(1638973129.149199) can0 262#0B00D20200F0D212
(1638973129.149200) can0 423#000010000000
(1638973129.149200) can0 13D#00000000FF00
(1638973129.149201) can0 261#0010A9005F408019
(1638973129.149201) can0 2E1#0200000000000100
(1638973129.150937) can0 359#0200000064828624
(1638973129.150938) can0 39A#3447FB96FFFDFD31
(1638973129.150939) can0 3E9#F12000000000A09D
(1638973129.150939) can0 132#1D92AEFF8A3FFF0F
(1638973129.150940) can0 243#41016DFF75FF9898
(1638973129.153961) can0 2C3#5503A83600001C00
(1638973129.153962) can0 6C8#0100000000000000
(1638973129.153962) can0 129#5E264F20FF1FFF3F
(1638973129.153963) can0 552#00000000000090E7
(1638973129.153963) can0 2C1#0300406600602100
(1638973129.155943) can0 677#02FFFFFFFF000000
(1638973129.155944) can0 3A2#A503000000000000
(1638973129.155944) can0 2D1#7F01
(1638973129.155945) can0 38A#0000000000000000
(1638973129.155945) can0 13D#00000000FF00
(1638973129.157795) can0 201#0300000000000000
(1638973129.157795) can0 23E#1DC672E1010268E1
(1638973129.157796) can0 3BB#190F
(1638973129.157796) can0 2F3#08080B0400
(1638973129.157797) can0 33A#8F008F00DB004442
(1638973129.157799) can0 419#00
(1638973129.161822) can0 39D#1A51012800
(1638973129.161824) can0 422#000010000000
(1638973129.161824) can0 2A8#C20000000000D03C
(1638973129.161825) can0 3A1#C3FFFF0100003088
(1638973129.161825) can0 132#2192AEFFA03FFF0F
(1638973129.162787) can0 207#0040342E29000000
(1638973129.162788) can0 129#20274F200020FF3F
(1638973129.162788) can0 2E1#036D990218430000
(1638973129.162789) can0 545#02004A0000008016
(1638973129.162789) can0 323#31141B0100
(1638973129.166722) can0 263#0330219FC113F606
(1638973129.166723) can0 13D#00000000FF00
(1638973129.166724) can0 2C1#04C8480300104048
(1638973129.166724) can0 421#000A0010000000
(1638973129.166725) can0 2C2#555BA93600001C00
(1638973129.169033) can0 3C2#2955000000000000
(1638973129.169034) can0 428#000010100000
(1638973129.169034) can0 2E2#0000007D000B0000
(1638973129.169035) can0 43B#007F00FF00000000
(1638973129.169035) can0 34A#0077022000000060
(1638973129.170692) can0 204#010000FF00000010
(1638973129.170693) can0 201#0400000000000000
(1638973129.170694) can0 264#29000000A000
(1638973129.170695) can0 132#2492B7FFBB3FFF0F
(1638973129.170695) can0 224#0408004019011008
(1638973129.172851) can0 225#054552
(1638973129.172852) can0 2B4#80ED27D200
(1638973129.172853) can0 2C4#1ABC79031428A000
(1638973129.172853) can0 129#F7284F200020FF3F
(1638973129.172853) can0 677#FBFFFFFFFFFFFF27
(1638973129.175607) can0 2F9#98FB07402FA82020
(1638973129.175609) can0 247#A30EFF0500BA0000
(1638973129.175609) can0 227#C203150035000081
(1638973129.175610) can0 409#00
(1638973129.175610) can0 1FA#3AC001
(1638973129.175612) can0 283#2E2900004100
(1638973129.177623) can0 3E8#0500000000000000
(1638973129.177624) can0 13D#00000000FF00
(1638973129.177625) can0 420#2801404B00B0
(1638973129.177626) can0 718#03FFFFFFFFFFFF
(1638973129.177626) can0 441#DCC54420DB0E24CC
(1638973129.181529) can0 361#28091B0400
(1638973129.181530) can0 2C1#0500000000000000
(1638973129.181531) can0 2E1#FC1BC44AAACE0A00
(1638973129.181531) can0 261#3148A700C74A9A0C
(1638973129.181531) can0 381#1800000000000000
(1638973129.183521) can0 3F9#0000000000000000
(1638973129.183522) can0 39A#FDFDFDFDFD010002
(1638973129.183522) can0 400#00E0FBBEEFFB00
(1638973129.183522) can0 132#1192B5FFC03FFF0F
(1638973129.183523) can0 1FB#00FFFFFFFFFFFFFF
(1638973129.185492) can0 243#FEFFEB0C04010000
(1638973129.185493) can0 3C0#0600000000000000
(1638973129.185493) can0 666#0000A000
(1638973129.185494) can0 129#CB294F20FF1FFF3F
(1638973129.185494) can0 55A#0100000000000000
(1638973129.187419) can0 249#83050000
(1638973129.187420) can0 405#1246333732333939
(1638973129.187420) can0 242#1095
(1638973129.187421) can0 7A8#A61E00F01D96E702
(1638973129.187421) can0 201#0500000000000000
(1638973129.191345) can0 339#5F41020080034006
(1638973129.191347) can0 103#12310000B80C2102
(1638973129.191347) can0 287#61596965EB021210
(1638973129.191348) can0 13D#00000000FF00
(1638973129.191348) can0 677#040F000000000000
(1638973129.192196) can0 360#0600000000000000
(1638973129.192196) can0 2C1#0600000040000000
(1638973129.192197) can0 132#1E92AEFFA93FFF0F
(1638973129.192197) can0 123#00004212D2000000
(1638973129.192198) can0 372#0C00000000000000
(1638973129.194407) can0 719#0286521C00000000
(1638973129.194408) can0 129#142A4F20FF1FFF3F
(1638973129.194409) can0 228#0316548C5480A198
(1638973129.194409) can0 282#9470C2093C64F224
(1638973129.194410) can0 2E1#0500000000000000
(1638973129.197405) can0 221#41015500000020DA
(1638973129.197406) can0 545#A0033100ACC69A2A
(1638973129.197407) can0 3A3#04D0000008
(1638973129.197407) can0 263#003AC163E8BCD500
(1638973129.197408) can0 2B3#0500807E05186300
(1638973129.199382) can0 13D#00000000FF00
(1638973129.199384) can0 102#12310000F82A2108
(1638973129.199384) can0 23E#1DC672E1010278F1
(1638973129.199385) can0 1F9#000000000000
(1638973129.199385) can0 201#0600000000000000
(1638973129.201299) can0 39D#1B52012800
(1638973129.201300) can0 6E8#0100000000000000
(1638973129.201300) can0 281#1500FF1F0001
(1638973129.201301) can0 132#2B92B7FFCB3FFF0F
(1638973129.201301) can0 393#0600187908C01E20
(1638973129.204455) can0 129#8C2B4F200020FF3F
(1638973129.204457) can0 2C1#0700000000000000
(1638973129.204457) can0 677#05FE3F2700000000
(1638973129.204458) can0 439#0000002000001301
(1638973129.204458) can0 122#00004212D200
(1638973129.206286) can0 739#2206190000
(1638973129.206287) can0 3A2#008072481D004A62
(1638973129.206287) can0 20C#2278340A37013010
(1638973129.206288) can0 13D#00000000FF00
(1638973129.206289) can0 273#81E0304018023011
(1638973129.208502) can0 2E8#C20000000000D07C
(1638973129.208503) can0 119#0000
(1638973129.208503) can0 39A#344BFB96FFFDFD31
(1638973129.208504) can0 2E1#1021041E94450604
(1638973129.208504) can0 3A1#08620B980058423D
(1638973129.212500) can0 132#1B92ACFF893FFF0F
(1638973129.212503) can0 243#408290A0934E0E29
(1638973129.212503) can0 272#0600198908C01E20
(1638973129.212504) can0 340#0100000000000000
(1638973129.212505) can0 3E3#0000
(1638973129.214835) can0 129#EC2C4F200020FF3F
(1638973129.214837) can0 201#F8661C00B4230300
(1638973129.214838) can0 261#56FE28B1925CA400
(1638973129.214839) can0 77A#0091F1FFB8100000
(1638973129.214840) can0 7AA#C0EBCEF400000000
(1638973129.218146) can0 78A#0100040000006806
(1638973129.218147) can0 2C1#208E3811911F0000
(1638973129.218149) can0 4E3#00AB04FF0F000800
(1638973129.218150) can0 448#000010100000
(1638973129.218151) can0 13D#00000000FF00
(1638973129.220004) can0 381#1900000000000000
(1638973129.220006) can0 3C2#0055555500005505
(1638973129.220007) can0 1F8#3A000000
(1638973129.220008) can0 677#F8FFFFFFFFFFFF3F
(1638973129.220009) can0 2D2#182FB14E0000A101
(1638973129.221907) can0 212#9804F60F02FF3F02
(1638973129.221908) can0 252#0000D6060000A00F
(1638973129.221909) can0 292#CADEFA6CB30C4A00
(1638973129.221910) can0 2F2#1201
(1638973129.221911) can0 392#01022A1A01000000
(1638973129.223811) can0 2E3#40000085000B00
(1638973129.223813) can0 25B#D3C0020000001000
(1638973129.223813) can0 132#1892ABFF9E3FFF0F
(1638973129.223814) can0 129#FE2D4F200020FF3F
(1638973129.223815) can0 241#3C3C160F8F5500
(1638973129.227766) can0 22A#00006917
(1638973129.227768) can0 3E2#401500E0500F00
(1638973129.227769) can0 379#032086809AB91D01
(1638973129.227770) can0 263#0134BF64E6BBD302
(1638973129.227771) can0 343#0090605EA9410000
(1638973129.230118) can0 201#010064FFFF0F0000
(1638973129.230120) can0 21D#0400B40000000000
(1638973129.230121) can0 13D#00000000FF00
(1638973129.230122) can0 2C1#0100001428006400
(1638973129.230122) can0 25D#C74801CC406101C0
(1638973129.231635) can0 27D#0000000000000000
(1638973129.231636) can0 2E1#290AAB8105000000
(1638973129.231637) can0 3C8#0000000000000000
(1638973129.231638) can0 29D#00000020
(1638973129.231639) can0 2BD#00000000
(1638973129.231639) can0 41D#00
(1638973129.235641) can0 43D#00000000FF00
(1638973129.235642) can0 545#010000000010A0FB
(1638973129.235643) can0 718#04FFFF00000000
(1638973129.235643) can0 75D#1600000000000000
(1638973129.235644) can0 77D#110000
(1638973129.235646) can0 7DD#FF0001
(1638973129.237633) can0 113#019701
(1638973129.237635) can0 7FF#049C04E05C010000
(1638973129.237636) can0 318#150C300E081217AB
(1638973129.237638) can0 132#1C92B9FFB63FFF0F
(1638973129.237638) can0 1FB#01FEFFB76D0B0000
(1638973129.239624) can0 3C3#0000000000550000
(1638973129.239625) can0 458#02020080000000
(1638973129.239626) can0 129#482E4F20FF1FFF3F
(1638973129.239626) can0 139#00
(1638973129.239627) can0 229#410500
(1638973129.239628) can0 2D7#4008
(1638973129.243428) can0 788#50FD116400008010
(1638973129.243430) can0 553#000000000000A0F8
(1638973129.243430) can0 13D#00000000FF00
(1638973129.243431) can0 23E#1DC672E105028805
(1638973129.243431) can0 3DA#0000000000000000
(1638973129.246148) can0 2C1#02AB835100930000
(1638973129.246150) can0 4E2#00AC040000000800
(1638973129.246150) can0 39D#1C53012800
(1638973129.246151) can0 39A#FDFDFDFDFD010002
(1638973129.246152) can0 201#EA0F40C104C01001
(1638973129.247309) can0 132#1292AAFF813FFF0F
(1638973129.247310) can0 243#41016DFF75FF9898
(1638973129.247310) can0 372#0D402B0000000000
(1638973129.247310) can0 383#7500520008202003
(1638973129.247311) can0 129#D02F4F200020FF3F
(1638973129.251339) can0 37A#0100000000000000
(1638973129.251341) can0 288#0316544C5480B1C8
(1638973129.251341) can0 3F5#00C8180900000000
(1638973129.251342) can0 221#404105050050312F
(1638973129.251343) can0 261#030000000040B438
(1638973129.253428) can0 262#0B00D20200F0D212
(1638973129.253431) can0 423#000010000000
(1638973129.253431) can0 13D#00000000FF00
(1638973129.253432) can0 359#03000000FF010000
(1638973129.253433) can0 2C1#0300406600602100
(1638973129.255435) can0 677#02FFFFFFFF000000
(1638973129.255437) can0 132#1D92B3FFAA3FFF0F
(1638973129.255438) can0 2C3#0000009B01008069
(1638973129.255438) can0 320#0200000000000000
(1638973129.255438) can0 772#020AA203CA030000
(1638973129.259155) can0 6C8#481E008D01000000
(1638973129.259156) can0 129#35204F200020FF3F
(1638973129.259157) can0 552#000000000000A0F7
(1638973129.259158) can0 381#1A00000000000000
(1638973129.259159) can0 201#0300000000000000
(1638973129.261168) can0 3A2#A503000000000000
(1638973129.261170) can0 2D1#7F01
(1638973129.261171) can0 38A#0100000000000000
(1638973129.261172) can0 263#0200000078273200
(1638973129.261172) can0 13D#00000000FF00
(1638973129.263009) can0 284#1000000000
(1638973129.263011) can0 419#00
(1638973129.263012) can0 2E1#036D990218440000
(1638973129.263013) can0 422#000010000000
(1638973129.263014) can0 2A8#C20000000000E04C
(1638973129.263016) can0 3A1#C3FFFF01000050A8
(1638973129.265772) can0 132#3092B7FFA73FFF0F
(1638973129.265773) can0 545#02004C000000B048
(1638973129.265774) can0 207#0042362E29000000
(1638973129.265774) can0 129#22214F200020FF3F
(1638973129.265775) can0 2C1#04C8470300104048
(1638973129.267894) can0 13D#00000000FF00
(1638973129.267895) can0 421#000A0010000000
(1638973129.267895) can0 677#FBFFFFFFFFFFFF27
(1638973129.267896) can0 2C2#2080009B01008069
(1638973129.267896) can0 3C2#2955000000000000
(1638973129.269820) can0 428#000010100000
(1638973129.269822) can0 201#0400000000000000
(1638973129.269822) can0 708#241C070000
(1638973129.269823) can0 39A#304BFB96FFFDFD31
(1638973129.269823) can0 2C4#000000D200000000
(1638973129.273398) can0 204#010000FF00000010
(1638973129.273399) can0 264#2A000000A000
(1638973129.273399) can0 132#1F92AEFF8E3FFF0F
(1638973129.273400) can0 224#0408004019011008
(1638973129.273400) can0 225#054552
(1638973129.274052) can0 243#FEFFEB0C04010000
(1638973129.274053) can0 2B4#80ED27D300
(1638973129.274054) can0 129#6B224F200020FF3F
(1638973129.274055) can0 3C4#1931313335353538
(1638973129.274056) can0 2F9#98FB07482FA82020
(1638973129.278142) can0 247#A20EFF0500BA0000
(1638973129.278143) can0 227#BF03150035000081
(1638973129.278145) can0 2C1#0500000000000000
(1638973129.278145) can0 2E1#FC1BC05AAAC50A00
(1638973129.278146) can0 409#00
(1638973129.278147) can0 1FA#3AC001
(1638973129.280130) can0 283#2E2800004100
(1638973129.280132) can0 3E8#0000000000000000
(1638973129.280133) can0 13D#00000000FF00
(1638973129.280134) can0 420#2801404B00C0
(1638973129.280134) can0 718#007F7F7FFFFFFF
(1638973129.281908) can0 23E#1DC672E105029815
(1638973129.281909) can0 441#D9C54420DB0E28CD
(1638973129.281909) can0 261#0010A9005F40C059
(1638973129.281910) can0 39D#1D54012800
(1638973129.281910) can0 3F9#0100000000000000
(1638973129.283885) can0 400#00E0FBBEEFFB00
(1638973129.283887) can0 132#1C92B4FFBF3FFF0F
(1638973129.283887) can0 1FB#00FFFFFFFFFFFFFF
(1638973129.283887) can0 3C0#0700000000000000
(1638973129.283888) can0 129#15234F20FF1FFF3F
(1638973129.287874) can0 249#5E070000
(1638973129.287875) can0 201#0500000000000000
(1638973129.287876) can0 677#040F000000000000
(1638973129.287876) can0 242#1095
(1638973129.287877) can0 7A8#50F5016400004010
(1638973129.289896) can0 287#61596965EB021210
(1638973129.289897) can0 103#12310000B80C2102
(1638973129.289898) can0 263#0330219FC113F606
(1638973129.289898) can0 13D#00000000FF00
(1638973129.289899) can0 2B3#0645AE68DAB7CC1A
(1638973129.293775) can0 2C1#0600000040000000
(1638973129.293776) can0 339#5F41020080034006
(1638973129.293777) can0 360#0700000000000000
(1638973129.293777) can0 2E1#0500000000000000
(1638973129.293778) can0 381#00145F4637322149
(1638973129.295828) can0 132#2792B9FF9F3FFF0F
(1638973129.295829) can0 123#00004212D2000000
(1638973129.295830) can0 372#0E0000F02CA00704
(1638973129.295830) can0 719#0100000000000000
(1638973129.295831) can0 129#57244F200120FF3F
(1638973129.297682) can0 228#0316544C5480B168
(1638973129.297683) can0 282#9470C2093C64F224
(1638973129.297684) can0 545#F0033620ACCDCAD6
(1638973129.297684) can0 221#41015500000040FA
(1638973129.297685) can0 3A3#04D0000008
(1638973129.299681) can0 13D#00000000FF00
(1638973129.299682) can0 201#0600000000000000
(1638973129.299682) can0 102#12310000F82A2108
(1638973129.299683) can0 1F9#000000000000
(1638973129.299683) can0 2C1#0700000000000000
(1638973129.303604) can0 677#05FE3F2700000000
(1638973129.303605) can0 39A#FDFDFDFDFD010002
(1638973129.303605) can0 6E8#401E008E01000000
(1638973129.303606) can0 281#1400FF1F0001
(1638973129.303606) can0 132#2792B3FF7F3FFF0F
(1638973129.305593) can0 243#408290A0934E0E29
(1638973129.305594) can0 362#000000
(1638973129.305594) can0 393#0980630000000000
(1638973129.305595) can0 129#40254F200120FF3F
(1638973129.305595) can0 439#0000002000001301
(1638973129.306596) can0 122#00004212D200
(1638973129.306597) can0 3A2#0000734805004A62
(1638973129.306597) can0 20C#1F78340A37013010
(1638973129.306598) can0 13D#00000000FF00
(1638973129.306598) can0 2E1#1021041E94450604
(1638973129.310559) can0 285#61024C0108003800
(1638973129.310560) can0 2E8#C20000000000E08C
(1638973129.310561) can0 119#0000
(1638973129.310561) can0 2C1#208E3811911F0000
(1638973129.310562) can0 201#18671C00B4230300
(1638973129.312967) can0 132#2792AEFF9A3FFF0F
(1638973129.312968) can0 272#0980630000000000
(1638973129.312969) can0 3A1#08620B980058625D
(1638973129.312969) can0 261#3148D300C24ADA73
(1638973129.312970) can0 340#0200000000000000
(1638973129.316318) can0 129#37264F200020FF3F
(1638973129.316319) can0 3E3#0000
(1638973129.316320) can0 7AA#019F0E9E0E030000
(1638973129.316320) can0 78A#0100050000006306
(1638973129.316320) can0 677#F8FFFFFFFFFFFF3F
(1638973129.318351) can0 4E3#018B040000000800
(1638973129.318352) can0 263#003AC163E8BCD500
(1638973129.318353) can0 13D#00000000FF00
(1638973129.318353) can0 448#000010100000
(1638973129.318354) can0 3C2#0055555500005505
(1638973129.320376) can0 23E#1DC672E10902A829
(1638973129.320377) can0 1F8#3A000000
(1638973129.320377) can0 39D#1E55012800
(1638973129.320378) can0 2D2#182FB14E0000A101
(1638973129.320378) can0 212#9804F60F02FF3F02
(1638973129.322297) can0 252#0000D6060000A00F
(1638973129.322298) can0 25B#D3C0020000002010
(1638973129.322299) can0 292#CADEFA6CB30C4A00
(1638973129.322299) can0 2E3#01000090001B00
(1638973129.322300) can0 2F2#1201
(1638973129.325285) can0 132#2492BBFF943FFF0F
(1638973129.325286) can0 129#20274F200020FF3F
(1638973129.325286) can0 241#3D3C560F8F5500
(1638973129.325287) can0 2C1#0100001428006400
(1638973129.325287) can0 2E1#290AAB8105000000
(1638973129.327320) can0 22A#00006917
(1638973129.327321) can0 201#010064FFFF0F0000
(1638973129.327321) can0 3E2#401500E0500F00
(1638973129.327322) can0 379#0480EE0100000000
(1638973129.327323) can0 343#009060EEA8000000
(1638973129.327324) can0 41D#00
(1638973129.329362) can0 718#01FFFFFFFFFF00
(1638973129.329364) can0 21D#0400B40000000000
(1638973129.329365) can0 43D#00000000FF00
(1638973129.329365) can0 13D#00000000FF00
(1638973129.329366) can0 25D#C74801CC406101C0
(1638973129.333004) can0 381#011F0090F5F2F202
(1638973129.333005) can0 27D#0000000000000000
(1638973129.333005) can0 3C8#0100000000000000
(1638973129.333006) can0 29D#00000020
(1638973129.333006) can0 2BD#00000000
(1638973129.335172) can0 545#010000000010D02B
(1638973129.335178) can0 77D#110000
(1638973129.335180) can0 7DD#FF0001
(1638973129.335181) can0 39A#304BFB96FFFDFD31
(1638973129.335182) can0 113#019701
(1638973129.335185) can0 677#01FFFFFFFFFFFF00
(1638973129.336926) can0 7FF#0500000020000000
(1638973129.336927) can0 132#2292ADFF8E3FFF0F
(1638973129.336928) can0 1FB#01FEFFB76D0B0000
(1638973129.336929) can0 243#41016DFF75FF9898
(1638973129.336929) can0 318#150C300E081219AD
(1638973129.340924) can0 129#F7284F200020FF3F
(1638973129.340925) can0 2C1#02AB835100930000
(1638973129.340926) can0 788#01000000FFA10800
(1638973129.340926) can0 553#000000000000B008
(1638973129.340927) can0 13D#00000000FF00
(1638973129.342813) can0 3DA#0000000000000000
(1638973129.342814) can0 201#EA0F40C104C01001
(1638973129.342814) can0 2E1#0200000000000100
(1638973129.342815) can0 4E2#01FF040000000800
(1638973129.342816) can0 132#1692AFFFA23FFF0F
(1638973129.345006) can0 372#0FCF020000000000
(1638973129.345007) can0 383#7500520008202003
(1638973129.345008) can0 129#A2294F200020FF3F
(1638973129.345009) can0 282#8129140A3B017A00
(1638973129.345009) can0 37A#0200000000000000
(1638973129.348664) can0 288#0316544C5480C1D8
(1638973129.348665) can0 3F5#00C8180900000000
(1638973129.348666) can0 221#404105050050514F
(1638973129.348666) can0 261#56FE28B1925CE440
(1638973129.348666) can0 262#0B00D20200F0D212
(1638973129.350630) can0 263#0134BF64E6BBD302
(1638973129.350631) can0 423#000010000000
(1638973129.350631) can0 13D#00000000FF00
(1638973129.350632) can0 2C1#0300406600702100
(1638973129.350632) can0 677#02FFFFFFFF000000
(1638973129.352931) can0 359#0400000001000004
(1638973129.352933) can0 132#2392BCFF9C3FFF0F
(1638973129.352934) can0 2C3#5503A83600001C00
(1638973129.352934) can0 6C8#0100000000000000
(1638973129.352935) can0 129#7D2A4F200020FF3F
(1638973129.355739) can0 201#0300000000000000
(1638973129.355740) can0 552#000000000000B007
(1638973129.355741) can0 2E1#036D990218440000
(1638973129.355741) can0 3A2#A503000000000000
(1638973129.355742) can0 2D1#7F01
(1638973129.357669) can0 38A#0300000000000000
(1638973129.357671) can0 13D#00000000FF00
(1638973129.357671) can0 23E#1DC672E10102B831
(1638973129.357672) can0 313#0264640100006041
(1638973129.357672) can0 419#00
(1638973129.359514) can0 2C1#04C8470300104048
(1638973129.359515) can0 285#02D2000000000200
(1638973129.359515) can0 39D#1F56012800
(1638973129.359516) can0 422#000010000000
(1638973129.359516) can0 2A8#C20000000000F05C
(1638973129.363478) can0 39A#FDFDFDFDFD010002
(1638973129.363479) can0 207#003E362E27000000
(1638973129.363479) can0 3A1#C3FFFF01000070C8
(1638973129.363480) can0 132#1D92AEFF833FFF0F
(1638973129.363480) can0 243#FEFFEB0C04010000
(1638973129.365563) can0 545#020050000000E07C
(1638973129.365564) can0 129#8C2B4F200020FF3F
(1638973129.365564) can0 677#FBFFFFFFFFFFFF27
(1638973129.365565) can0 381#22A5E80703200864
(1638973129.365565) can0 3D3#000000
(1638973129.367529) can0 13D#00000000FF00
(1638973129.367531) can0 201#0400000000000000
(1638973129.367531) can0 421#000A0010000000
(1638973129.367532) can0 2C2#555BA93600001C00
(1638973129.367532) can0 3C2#2955000000000000
(1638973129.371388) can0 428#000010100000
(1638973129.371389) can0 2E2#0100008E000B0000
(1638973129.371390) can0 2C4#010000D200000000
(1638973129.371390) can0 204#010000FF00000010
(1638973129.371391) can0 2C1#0500000000000000
(1638973129.373248) can0 132#1D92B0FFAE3FFF0F
(1638973129.373249) can0 224#0408004019011008
(1638973129.373250) can0 225#054552
(1638973129.373250) can0 264#29000000A000
(1638973129.373251) can0 2B4#7FED27CC00
(1638973129.374289) can0 129#EC2C4F200020FF3F
(1638973129.374290) can0 2E1#FC1BBE5AAAC80A00
(1638973129.374291) can0 2A4#9BF674A85BEDEC16
(1638973129.374291) can0 364#3C78
(1638973129.374292) can0 3A4#0000000000000000
(1638973129.378222) can0 2F9#98FB071000000000
(1638973129.378224) can0 227#BC03150035000081
(1638973129.378224) can0 247#A30EFF0500BA0000
(1638973129.378225) can0 1FA#3AC001
(1638973129.378225) can0 283#2E2700004100
(1638973129.380251) can0 263#0200000078273200
(1638973129.380253) can0 13D#00000000FF00
(1638973129.380253) can0 2B3#07DDDBECEBF2F0E0
(1638973129.380254) can0 3E8#0100000000000000
(1638973129.380254) can0 409#00
(1638973129.382085) can0 718#02FFFFFFFFFFFF
(1638973129.382086) can0 261#030000000040F478
(1638973129.382087) can0 441#DCC54420DB0E2CD4
(1638973129.382087) can0 420#2801404B00D0
(1638973129.382087) can0 737#00000000000000
(1638973129.386201) can0 677#040F000000000000
(1638973129.386203) can0 3F9#0200000000000000
(1638973129.386203) can0 400#00E0FBBEEFFB00
(1638973129.386204) can0 201#0500000000000000
(1638973129.386205) can0 38B#FFFF6F191400
(1638973129.388107) can0 132#2592BBFFB33FFF0F
(1638973129.388108) can0 1FB#00FFFFFFFFFFFFFF
(1638973129.388109) can0 3C0#0800000000000000
(1638973129.388110) can0 129#532D4F200120FF3F
(1638973129.388111) can0 249#5E090000
(1638973129.390102) can0 2C1#0600000040000000
(1638973129.390104) can0 242#1095
(1638973129.390105) can0 7A8#01000000FFA10800
(1638973129.390105) can0 339#5F41020080034006
(1638973129.390106) can0 103#12310000B80C2102
(1638973129.393948) can0 287#61596965EB021210
(1638973129.393949) can0 13D#00000000FF00
(1638973129.393950) can0 2E1#0500000000000000
(1638973129.393950) can0 39A#3447FB96FFFDFD31
(1638973129.393951) can0 360#0800000000000000
(1638973129.396028) can0 132#2092B0FF833FFF0F
(1638973129.396030) can0 123#00004212D2000000
(1638973129.396031) can0 243#408290A0934E0E29
(1638973129.396031) can0 372#10000000000DE32E
(1638973129.396032) can0 719#0286521C00000000
(1638973129.397777) can0 129#482E4F20FF1FFF3F
(1638973129.397778) can0 228#0316544C5480C178
(1638973129.397778) can0 282#9470C2093C64F224
(1638973129.397778) can0 545#600331D0ABC4FA17
(1638973129.397779) can0 2C1#0700000000000000
(1638973129.401712) can0 201#0600000000000000
(1638973129.401713) can0 221#410155000000601A
(1638973129.401713) can0 677#05FE3F2700000000
(1638973129.401714) can0 3A3#04D0000008
(1638973129.401714) can0 13D#00000000FF00
(1638973129.402556) can0 102#12310000F82A2108
(1638973129.402557) can0 23E#1DC672E10102C841
(1638973129.402557) can0 1F9#000000000000
(1638973129.402558) can0 39D#2057012800
(1638973129.402558) can0 6E8#0100000000000000
(1638973129.404916) can0 281#1300FF1F0001
(1638973129.404917) can0 132#1E92B5FF9F3FFF0F
(1638973129.404918) can0 393#0600187908C01E20
(1638973129.404918) can0 381#03C2C3C3C3C40000
(1638973129.404919) can0 129#B92F4F20FF1FFF3F
(1638973129.408860) can0 2E1#1021041E94450604
(1638973129.408861) can0 439#0000002000001301
(1638973129.408861) can0 122#00004212D200
(1638973129.408862) can0 3A2#0020F34705004A62
(1638973129.408862) can0 20C#1C78340A37013010
(1638973129.410643) can0 263#0330219FC113F606
(1638973129.410644) can0 13D#00000000FF00
(1638973129.410644) can0 2C1#208E3811911F0000
(1638973129.410645) can0 293#010C559155152416
(1638973129.410645) can0 253#6B086464085502
(1638973129.413039) can0 2E8#C20000000000F09C
(1638973129.413040) can0 201#18671C00BC230300
(1638973129.413040) can0 285#037C955C86000000
(1638973129.413041) can0 119#0000
(1638973129.413041) can0 677#F8FFFFFFFFFFFF3F
(1638973129.416489) can0 261#0010AA005F40009A
(1638973129.416490) can0 132#2692B7FF9A3FFF0F
(1638973129.416490) can0 272#0600198108C01E20
(1638973129.416491) can0 3A1#08620B980058827D
(1638973129.416491) can0 340#0300000000000000
(1638973129.418474) can0 3E3#0000
(1638973129.418475) can0 129#35204F200020FF3F
(1638973129.418475) can0 76A#00940AA502000000
(1638973129.418476) can0 7AA#320996FA37092100
(1638973129.418476) can0 78A#0100060000000500
(1638973129.419382) can0 4E3#02F9070000000800
(1638973129.419383) can0 448#000010100000
(1638973129.419383) can0 13D#00000000FF00
(1638973129.419384) can0 3C2#0055555500005505
(1638973129.419384) can0 1F8#3A000000
(1638973129.422485) can0 2C1#0100001428006400
(1638973129.422486) can0 2E1#290AAB8105000000
(1638973129.422486) can0 43B#017F00FF00000000
(1638973129.422486) can0 39A#FDFDFDFDFD010002
(1638973129.422487) can0 3DB#0010060302000000
(1638973129.423874) can0 132#2192B4FF843FFF0F
(1638973129.423875) can0 243#41016DFF75FF9898
(1638973129.423875) can0 2E3#0200008D001B00
(1638973129.423876) can0 2D2#182FB14E0000A101
(1638973129.423876) can0 129#22214F200020FF3F
(1638973129.425478) can0 212#9804F60F02FF3F02
(1638973129.425479) can0 201#010063FFFF0F0000
(1638973129.425479) can0 241#3D3C560F8F5500
(1638973129.425480) can0 252#0000D6060000A00F
(1638973129.425480) can0 25B#D3C0020000003020
(1638973129.429361) can0 292#CADEFA6CB30C4A00
(1638973129.429362) can0 2F2#1201
(1638973129.429362) can0 782#1F5A005C01000000
(1638973129.429363) can0 3E2#401500E0500F00
(1638973129.429363) can0 379#05A02FA86E000002
(1638973129.430456) can0 343#00905C1EA9030000
(1638973129.430457) can0 75D#07EA000000000000
(1638973129.430457) can0 545#010000000010005B
(1638973129.430458) can0 13D#00000000FF00
(1638973129.430458) can0 31E#0000000000000000
(1638973129.432161) can0 21D#0400B40000000000
(1638973129.432162) can0 41D#00
(1638973129.432163) can0 677#01FFFFFFFFFFFF00
(1638973129.432163) can0 43D#00000000FF00
(1638973129.432164) can0 2BD#00000000
(1638973129.432165) can0 718#03FFFFFFFFFFFF
(1638973129.436175) can0 77D#110000
(1638973129.436177) can0 7DD#FF0001
(1638973129.436177) can0 3C3#0000000000550000
(1638973129.436178) can0 129#6B224F200020FF3F
(1638973129.436178) can0 139#00
(1638973129.436179) can0 229#F90700
(1638973129.436179) can0 2D7#4008
(1638973129.437255) can0 249#E20A0000
(1638973129.437257) can0 458#02020080000000
(1638973129.437257) can0 54F#0000000000000000
(1638973129.437258) can0 666#0000A000
(1638973129.437259) can0 55A#0100000000000000
(1638973129.441154) can0 788#B61E00002D4CE502
(1638973129.441155) can0 263#003AC163E8BCD500
(1638973129.441156) can0 553#000000000000C018
(1638973129.441156) can0 13D#00000000FF00
(1638973129.441157) can0 201#EA0F40C104C01001
(1638973129.442938) can0 132#2B92B7FFBE3FFF0F
(1638973129.442938) can0 372#1100000000000000
(1638973129.442939) can0 383#7500520008202003
(1638973129.442939) can0 129#7C234F200020FF3F
(1638973129.442940) can0 2C1#0300406600702100
(1638973129.444892) can0 677#02FFFFFFFF000000
(1638973129.444893) can0 282#8129148A21017A00
(1638973129.444894) can0 261#3148CF00BD4A1AAA
(1638973129.444894) can0 37A#0000000000000000
(1638973129.444894) can0 288#0316544C5480D1E8
(1638973129.447005) can0 3F5#00C8180900000000
(1638973129.447007) can0 221#404105050050716F
(1638973129.447007) can0 262#0B00D20200F0D212
(1638973129.447008) can0 423#000010000000
(1638973129.447008) can0 13D#00000000FF00
(1638973129.451030) can0 359#0500000000000000
(1638973129.451032) can0 39A#3447F796FFFDFD31
(1638973129.451032) can0 201#0300000000000000
(1638973129.451033) can0 2E1#036D990218440000
(1638973129.451034) can0 132#1392ABFFA43FFF0F
(1638973129.452898) can0 243#FEFFE30C04010000
(1638973129.452899) can0 2C3#0000009B01008069
(1638973129.452900) can0 6C8#481E008D01000000
(1638973129.452900) can0 129#FA244F200020FF3F
(1638973129.452900) can0 552#000000000000C017
(1638973129.454817) can0 2C1#04C8460300104048
(1638973129.454819) can0 3A2#A703000000000000
(1638973129.454819) can0 2D1#7F01
(1638973129.454820) can0 38A#0000000000000000
(1638973129.454820) can0 13D#00000000FF00
(1638973129.454821) can0 213#4055
(1638973129.458776) can0 419#00
(1638973129.458777) can0 677#FBFFFFFFFFFFFF27
(1638973129.458779) can0 545#02005700000010B3
(1638973129.458779) can0 422#000010000000
(1638973129.458780) can0 2A8#C20000000000006C
(1638973129.459646) can0 3A1#C3FFFF01000090E8
(1638973129.459647) can0 132#2192ADFFB23FFF0F
(1638973129.459648) can0 207#0044342E27000000
(1638973129.459648) can0 129#ED254F200020FF3F
(1638973129.459648) can0 201#0400000000000000
(1638973129.461878) can0 263#0134BF64E6BBD302
(1638973129.461879) can0 2B3#081E1D0F0F070B19
(1638973129.461880) can0 13D#00000000FF00
(1638973129.461880) can0 2C1#0500000000000000
(1638973129.461881) can0 2C2#2080009B01008069
(1638973129.464912) can0 2E1#FC1BC00AAAC60A00
(1638973129.464913) can0 302#18000000FFFFFFFF
(1638973129.464913) can0 3C2#2955000000000000
(1638973129.464914) can0 421#000A0010000000
(1638973129.464914) can0 428#000010100000
(1638973129.466825) can0 2C4#020000D200000000
(1638973129.466826) can0 204#010000FF00000010
(1638973129.466827) can0 264#29000000A000
(1638973129.466827) can0 132#2692B7FFAE3FFF0F
(1638973129.466828) can0 224#0408004019011008
(1638973129.468849) can0 225#054552
(1638973129.468849) can0 2B4#80F127CC00
(1638973129.468850) can0 129#37264F200020FF3F
(1638973129.468850) can0 247#A30EFF0500BA0000
(1638973129.468851) can0 227#B803140035000081
(1638973129.473036) can0 2F9#98FB071800000000
(1638973129.473037) can0 677#040F000000000000
(1638973129.473037) can0 409#00
(1638973129.473038) can0 381#0500461F00000000
(1638973129.473038) can0 1FA#3AC001
(1638973129.473039) can0 283#2E2700004100
(1638973129.474683) can0 3E8#0200000000000000
(1638973129.474685) can0 13D#00000000FF00
(1638973129.474686) can0 261#56FE28B1925C2480
(1638973129.474686) can0 420#2801404B00E0
(1638973129.474687) can0 718#04FFFF00000000
(1638973129.476859) can0 23E#1DC672E10102E861
(1638973129.476861) can0 441#DCC54420DB0E30D8
(1638973129.476861) can0 2C1#0600000040000000
(1638973129.476861) can0 201#0500000000000000
(1638973129.476862) can0 39D#2259012800
(1638973129.481021) can0 3F9#0300000000000000
(1638973129.481022) can0 39A#FDFDFDFDFD010002
(1638973129.481022) can0 400#08E0FBBEEFFB00
(1638973129.481023) can0 132#1B92B4FFBB3FFF0F
(1638973129.481023) can0 1FB#00FFFFFFFFFFFFFF
(1638973129.482380) can0 243#408290A0934E0E29
(1638973129.482381) can0 3C0#0000000000000000
(1638973129.482382) can0 129#8D274F200120FF3F
(1638973129.482382) can0 249#280B0000
(1638973129.482383) can0 2E1#0500000000000000
(1638973129.484749) can0 242#1095
(1638973129.484750) can0 7A8#AA1E00F02D4CE502
(1638973129.484751) can0 339#5F41020080034006
(1638973129.484751) can0 103#12310000B80C2102
(1638973129.484752) can0 13D#00000000FF00
(1638973129.487415) can0 287#61596965EB021210
(1638973129.487416) can0 360#0000000000000000
(1638973129.487416) can0 2C1#0700000000000000
(1638973129.487417) can0 677#05FE3F2700000000
(1638973129.487417) can0 132#1992AFFFA73FFF0F
(1638973129.489488) can0 123#00004212D2000000
(1638973129.489490) can0 372#1200F8E4052E68FF
(1638973129.489490) can0 719#0100000000000000
(1638973129.489490) can0 129#F7284F200020FF3F
(1638973129.489491) can0 228#0316544C5480D188
(1638973129.493442) can0 201#0600000000000000
(1638973129.493443) can0 545#F0033100ACC62A0A
(1638973129.493444) can0 282#9470C2093C64F224
(1638973129.493445) can0 221#410155000000803A
(1638973129.493446) can0 3A3#04D0000008
(1638973129.495382) can0 263#0200000078273200
(1638973129.495383) can0 13D#00000000FF00
(1638973129.495384) can0 102#12310000F82A2108
(1638973129.495385) can0 1F9#000000000000
(1638973129.495386) can0 2E1#1021041E94450604
(1638973129.497625) can0 6E8#401E008E01000000
(1638973129.497627) can0 281#1300FF1F0001
(1638973129.497628) can0 132#2392BCFF9E3FFF0F
(1638973129.497628) can0 393#0980630000000000
(1638973129.497629) can0 129#A2294F200020FF3F
(1638973129.499296) can0 2C1#208E3811911F0000
(1638973129.499298) can0 439#0000002000001301
(1638973129.499299) can0 122#00004212D200
(1638973129.499299) can0 3A2#0000734B05004A62
(1638973129.499300) can0 20C#1958340A37013010
(1638973129.503200) can0 13D#00000000FF00
(1638973129.503201) can0 201#F8661C00BC230300
(1638973129.503202) can0 677#F8FFFFFFFFFFFF3F
(1638973129.503203) can0 2E8#C2000000000000AC
(1638973129.503204) can0 261#03000000004034B8
(1638973129.505182) can0 119#0000
(1638973129.505184) can0 39A#344BFB96FFFDFD31
(1638973129.505184) can0 3A1#08620B980058A29D
(1638973129.505185) can0 132#1D92B5FFA93FFF0F
(1638973129.505186) can0 243#41016DFF75FF9898
(1638973129.507938) can0 272#0980630000000000
(1638973129.507939) can0 340#0400000000000000
(1638973129.507940) can0 3E3#0000
(1638973129.507941) can0 129#7D2A4F200020FF3F
(1638973129.507942) can0 381#E67FFF0300000000
(1638973129.509932) can0 78A#010007000000AE04
(1638973129.509933) can0 2C1#0100001428006400
(1638973129.509933) can0 2E1#290AAB8105000000
(1638973129.509933) can0 4E3#03C6010000000800
(1638973129.509934) can0 448#000010100000
(1638973129.511933) can0 13D#00000000FF00
(1638973129.511934) can0 3C2#0055555500005505
(1638973129.511935) can0 23E#1DC672E10102F871
(1638973129.511935) can0 1F8#3A000000
(1638973129.511936) can0 39D#235A012800
(1638973129.515985) can0 2D2#182FB14E0000A101
(1638973129.515986) can0 212#9804F60F02FF3F02
(1638973129.515986) can0 252#0000D6060000A00F
(1638973129.515987) can0 201#010063FFFF0F0000
(1638973129.515987) can0 25B#D3C0020000004030
(1638973129.517837) can0 292#CADEFA6CB30C4A00
(1638973129.517838) can0 2E3#0300007D001B00
(1638973129.517838) can0 2F2#1201
(1638973129.517839) can0 132#1592ACFFB23FFF0F
(1638973129.517839) can0 3B2#2200000000000000
(1638973129.518870) can0 129#8C2B4F200020FF3F
(1638973129.518871) can0 7C8#1100000000000000
(1638973129.518871) can0 241#3C3C160F8F5500
(1638973129.518872) can0 677#01FFFFFFFFFFFF00
(1638973129.518872) can0 22A#00006917
(1638973129.522902) can0 3E2#401500E0500F00
(1638973129.522903) can0 545#010000000010308B
(1638973129.522903) can0 379#06001FF576000002
(1638973129.522904) can0 263#0330219FC113F606
(1638973129.522905) can0 343#00905C3EA9000000
(1638973129.524215) can0 2C1#02AB835100930000
(1638973129.524216) can0 21D#0400B40000000000
(1638973129.524216) can0 31E#0100000000000000
(1638973129.524217) can0 13D#00000000FF00
(1638973129.524217) can0 25D#C74801CC406101C0
(1638973129.525993) can0 41D#00
(1638973129.525994) can0 718#007F7F7FFFFFFF
(1638973129.525995) can0 27D#0000000000000000
(1638973129.525995) can0 29D#00000020
(1638973129.525996) can0 3C8#0300000000000000
(1638973129.525997) can0 2BD#00000000
(1638973129.527909) can0 43D#00000000FF00
(1638973129.527911) can0 77D#110000
(1638973129.527912) can0 7DD#FF0001
(1638973129.527912) can0 113#019701
(1638973129.527913) can0 2E1#0200000000000100
(1638973129.527913) can0 7FF#02023628DC4D9120
(1638973129.531810) can0 132#1F92BDFFCE3FFF0F
(1638973129.531811) can0 318#150C300E08121DB1
(1638973129.531812) can0 3C3#5555550100000000
(1638973129.531812) can0 129#EC2C4F200020FF3F
(1638973129.531814) can0 139#00
(1638973129.533732) can0 229#4C0800
(1638973129.533734) can0 2D7#4008
(1638973129.533735) can0 249#3A0C0000
(1638973129.533736) can0 458#02020080000000
(1638973129.533736) can0 54F#0000000000000000
(1638973129.533737) can0 2F1#0901000000280100
(1638973129.535630) can0 201#EA0F40C104C01001
(1638973129.535631) can0 788#50FD116400008010
(1638973129.535631) can0 553#000000000000D028
(1638973129.535632) can0 13D#00000000FF00
(1638973129.535632) can0 3DA#0000000000000000
(1638973129.538731) can0 2C1#0300406600702100
(1638973129.538732) can0 677#02FFFFFFFF000000
(1638973129.538732) can0 4E2#0309020000000800
(1638973129.538733) can0 39A#FDFDFDFDFD010002
(1638973129.538733) can0 132#1792B6FFB93FFF0F
(1638973129.540816) can0 243#FEFFE30C04010000
(1638973129.540818) can0 383#7500520008202003
(1638973129.540818) can0 129#FE2D4F200020FF3F
(1638973129.540818) can0 261#0010AA005F4040DA
(1638973129.540819) can0 282#8129140A08017A00
(1638973129.542577) can0 37A#0100000000000000
(1638973129.542578) can0 288#0316548C5480E138
(1638973129.542578) can0 3F5#00C8180900000000
(1638973129.542579) can0 221#404105050050918F
(1638973129.542579) can0 262#0B00D20200F0D212
(1638973129.546447) can0 423#000010000000
(1638973129.546448) can0 13D#00000000FF00
(1638973129.546449) can0 2E1#036D990218440000
(1638973129.546449) can0 201#0300000000000000
(1638973129.546450) can0 381#0700000000000000
(1638973129.548208) can0 359#06000000AA0C3704
(1638973129.548209) can0 2C1#04C8450300104048
(1638973129.548210) can0 132#1B92AFFFA53FFF0F
(1638973129.548210) can0 2C3#5503A83600001C00
(1638973129.548211) can0 6C8#0100000000000000
(1638973129.550381) can0 129#8C2E4F200120FF3F
(1638973129.550382) can0 552#000000000000D027
(1638973129.550383) can0 677#FBFFFFFFFFFFFF27
(1638973129.550383) can0 3A2#A703000000000000
(1638973129.550384) can0 2D1#7F01
(1638973129.553414) can0 38A#0100000000000000
(1638973129.553416) can0 263#003AC163E8BCD500
(1638973129.553417) can0 2B3#A90F000100645849
(1638973129.553417) can0 13D#00000000FF00
(1638973129.553418) can0 23E#1DC672E105020885
(1638973129.555440) can0 473#30000000770DB261
(1638973129.555441) can0 3B3#8080052001005000
(1638973129.555441) can0 419#00
(1638973129.555442) can0 545#02005B00000040E7
(1638973129.555442) can0 39D#245B012800
(1638973129.555444) can0 422#000010000000
(1638973129.556461) can0 2A8#C20000000000107C
(1638973129.556462) can0 3A1#C3FFFF010000B008
(1638973129.556462) can0 132#2A92BAFFA73FFF0F
(1638973129.556463) can0 129#D02F4F200020FF3F
(1638973129.556464) can0 207#003E362E28000000
(1638973129.559514) can0 201#0400000000000000
(1638973129.559515) can0 2C1#0500000000000000
(1638973129.559515) can0 2E1#FC1BC0FAA9C50A00
(1638973129.559516) can0 303#1100000000000000
(1638973129.559516) can0 13D#00000000FF00
(1638973129.561615) can0 421#000A0010000000
(1638973129.561616) can0 2C2#555BA93600001C00
(1638973129.561616) can0 3C2#2955000000000000
(1638973129.561617) can0 428#000010100000
(1638973129.561617) can0 2E2#52393C4C59490900
(1638973129.564484) can0 39A#3447FB96FFFDFD31
(1638973129.564485) can0 2C4#A3000CE000048000
(1638973129.564485) can0 204#010000FF00000010
(1638973129.564486) can0 677#040F000000000000
(1638973129.564486) can0 132#2492B2FF983FFF0F
(1638973129.566745) can0 224#0408004019011008
(1638973129.566746) can0 225#054552
(1638973129.566746) can0 243#408290A0934E0E29
(1638973129.566746) can0 264#28000000A000
(1638973129.566747) can0 129#35204F200020FF3F
(1638973129.568466) can0 2B4#80ED27D100
(1638973129.568467) can0 247#A20EFF0500BA0000
(1638973129.568467) can0 227#B303140035000081
(1638973129.568468) can0 2F9#98FB072000000000
(1638973129.568468) can0 2C1#0600000040000000
(1638973129.570532) can0 261#3148E300BF4A5A00
(1638973129.570533) can0 409#00
(1638973129.570534) can0 1FA#3AC001
(1638973129.570534) can0 283#2E2800004100
(1638973129.570535) can0 3E8#0300000000000000
(1638973129.570536) can0 13D#00000000FF00
(1638973129.574523) can0 201#0500000000000000
(1638973129.574525) can0 420#2801404B00F0
(1638973129.574526) can0 718#01FFFFFFFFFF00
(1638973129.574527) can0 441#DCC54420DB0E34DC
(1638973129.574527) can0 301#1800000000000000
(1638973129.576446) can0 2E1#0500000000000000
(1638973129.576447) can0 3F9#0400000000000000
(1638973129.576447) can0 400#08E0FBBEEFFB00
(1638973129.576448) can0 232#4A00B409C6040000
(1638973129.576448) can0 132#2592B6FFC93FFF0F
(1638973129.580337) can0 1FB#00FFFFFFFFFFFFFF
(1638973129.580338) can0 3C0#0100000000000000
(1638973129.580338) can0 752#0380111400000000
(1638973129.580339) can0 129#4B214F20FF1FFF3F
(1638973129.580339) can0 249#130D0000
(1638973129.582183) can0 330#114D323831393833
(1638973129.582184) can0 242#1095
(1638973129.582184) can0 7A8#50F5016400004010
(1638973129.582185) can0 312#024480723332A70F
(1638973129.582185) can0 300#1405000039F70151
(1638973129.584230) can0 332#0C015C5A0000
(1638973129.584231) can0 352#DE694A508242060B
(1638973129.584232) can0 374#6C08D2056A04
(1638973129.584232) can0 3D2#50776E00C6F47200
(1638973129.584233) can0 3F2#0B4DFF1060696A00
(1638973129.587228) can0 103#12310000B80C2102
(1638973129.587229) can0 263#0134BF64E6BBD302
(1638973129.587229) can0 13D#00000000FF00
(1638973129.587230) can0 2C1#0700000000000000
(1638973129.587231) can0 287#61596965EB021210
(1638973129.589120) can0 339#5F41020080034006
(1638973129.589121) can0 381#0800000000000000
(1638973129.589122) can0 452#C2401F
(1638973129.589122) can0 472#2FF0022F0000
(1638973129.589123) can0 677#05FE3F2700000000
(1638973129.591116) can0 360#0100000000000000
(1638973129.591117) can0 201#0600000000000000
(1638973129.591118) can0 132#2B92B9FFAA3FFF0F
(1638973129.591118) can0 123#00004212D2000000
(1638973129.591118) can0 320#0000000000000000
(1638973129.593077) can0 372#00118055C11FBC40
(1638973129.593078) can0 545#A0033100ACCA5AEE
(1638973129.593079) can0 129#6B224F200020FF3F
(1638973129.593079) can0 228#0316544C5480E198
(1638973129.593080) can0 719#0286521C00000000
(1638973129.596122) can0 772#002A48037A032003
(1638973129.596123) can0 282#9470C2093864F224
(1638973129.596124) can0 2E1#1021041E94450604
(1638973129.596124) can0 221#410155000000A05A
(1638973129.596125) can0 3A3#04D0000008
(1638973129.598178) can0 13D#00000000FF00
(1638973129.598179) can0 102#12310000F82A2108
(1638973129.598179) can0 23E#1DC672E105021895
(1638973129.598180) can0 1F9#000000000000
(1638973129.598181) can0 2C1#208E3811911F0000
(1638973129.599914) can0 39D#255C012800
(1638973129.599915) can0 39A#FDFDFDFDFD010002
(1638973129.599917) can0 6E8#0100000000000000
(1638973129.599917) can0 281#1200FF1F0001
(1638973129.599918) can0 132#1D92B5FFBA3FFF0F
(1638973129.603207) can0 243#41016DFF75FF9898
(1638973129.603208) can0 393#0600187908C01E20
(1638973129.603209) can0 129#D1234F200120FF3F
(1638973129.603209) can0 677#F8FFFFFFFFFFFF3F
(1638973129.603210) can0 439#0000002000001301
(1638973129.604977) can0 122#00004212D200
(1638973129.604978) can0 201#18C71C00C0230300
(1638973129.604978) can0 3A2#00C0724905004A62
(1638973129.604979) can0 20C#1658340A37013010
(1638973129.604979) can0 13D#00000000FF00
(1638973129.608850) can0 333#8410890702
(1638973129.608851) can0 334#3F3FC800E13FE07D
(1638973129.608852) can0 2E8#C2000000000010BC
(1638973129.608852) can0 261#56FE28B1925C64C0
(1638973129.608853) can0 119#0000
(1638973129.610947) can0 2C1#0100001428006400
(1638973129.610948) can0 2E1#290AAB8105000000
(1638973129.610948) can0 132#2992ADFFBB3FFF0F
(1638973129.610949) can0 272#0600198908C01E20
(1638973129.610949) can0 3A1#08620B980058C2BD
(1638973129.613094) can0 340#0500000000000000
(1638973129.613095) can0 3E3#0000
(1638973129.613096) can0 129#FA244F200020FF3F
(1638973129.613096) can0 7AA#0399FA3A09030000
(1638973129.613097) can0 78A#0100080000005300
(1638973129.613752) can0 4E3#0400000000000000
(1638973129.613753) can0 263#0200000078273200
(1638973129.613754) can0 13D#00000000FF00
(1638973129.613755) can0 448#000010100000
(1638973129.613756) can0 3C2#0055555500005505
(1638973129.617760) can0 1F8#3A000000
(1638973129.617761) can0 201#010063FFFF0F0000
(1638973129.617761) can0 677#01FFFFFFFFFFFF00
(1638973129.617762) can0 132#1892B4FFBE3FFF0F
(1638973129.617762) can0 2E3#A4926187190600
(1638973129.619863) can0 25B#D3C0020000005040
(1638973129.619864) can0 129#ED254F200020FF3F
(1638973129.619864) can0 2D2#182FB14E0000A101
(1638973129.619865) can0 212#9804F60F02FF3F02
(1638973129.619865) can0 241#3D3C560F8F5500
(1638973129.621580) can0 252#0000D6060000A00F
(1638973129.621581) can0 292#CADEFA6CB30C4A00
(1638973129.621581) can0 2C1#02AB835100930000
(1638973129.621582) can0 2F2#1201
(1638973129.621582) can0 381#0900000000000000
(1638973129.625609) can0 22A#00006917
(1638973129.625610) can0 545#01000000001060BB
(1638973129.625611) can0 3E2#401500E0500F00
(1638973129.625611) can0 379#0760145843000002
(1638973129.625612) can0 343#00905C4EA9000000
(1638973129.626544) can0 75D#08C7ACA5ACECAC02
(1638973129.626545) can0 2E1#0200000000000100
(1638973129.626546) can0 31E#0200000000000000
(1638973129.626546) can0 718#02FFFFFFFFFFFF
(1638973129.626547) can0 13D#00000000FF00
(1638973129.629125) can0 21D#0400B40000000000
(1638973129.629126) can0 25D#C74801CC406101C0
(1638973129.629127) can0 3C8#0400000000000000
(1638973129.629128) can0 27D#0000000000000000
(1638973129.629129) can0 41D#00
(1638973129.632408) can0 29D#00000020
(1638973129.632409) can0 43D#00000000FF00
(1638973129.632409) can0 2BD#00000000
(1638973129.632410) can0 77D#110000
(1638973129.632410) can0 7DD#FF0001
(1638973129.632412) can0 39A#3447FB96FFFDFD31
(1638973129.632412) can0 113#019701
(1638973129.634503) can0 7FF#033108A160420011
(1638973129.634504) can0 318#150C300E08121FB3
(1638973129.634506) can0 132#1A92AFFFB23FFF0F
(1638973129.634506) can0 1FB#01FEFFB76D0B0000
(1638973129.634507) can0 243#FEFFE30C04010000
(1638973129.636739) can0 3C3#0000000000550000
(1638973129.636740) can0 129#37264F200020FF3F
(1638973129.636740) can0 139#00
(1638973129.636741) can0 229#A50900
(1638973129.636741) can0 201#EA0F40C104C01001
(1638973129.636743) can0 249#AF0E0000
(1638973129.640365) can0 2C1#0300406600802100
(1638973129.640367) can0 677#02FFFFFFFF000000
(1638973129.640368) can0 788#01000000FFA10800
(1638973129.640369) can0 553#000000000000E038
(1638973129.640369) can0 13D#00000000FF00
(1638973129.642400) can0 23E#1DC672E1010228A1
(1638973129.642401) can0 3DA#0000000000000000
(1638973129.642402) can0 4E2#0400000000000000
(1638973129.642402) can0 39D#265D012800
(1638973129.642403) can0 132#1492ADFFAF3FFF0F
(1638973129.644474) can0 372#0109990050004001
(1638973129.644475) can0 383#7500520008202003
(1638973129.644477) can0 261#03000000004074F8
(1638973129.644477) can0 129#20274F200020FF3F
(1638973129.644478) can0 2E1#036D990218440000
(1638973129.648064) can0 282#8129148A43017A00
(1638973129.648065) can0 37A#0200000000000000
(1638973129.648065) can0 288#0316548C5480F148
(1638973129.648066) can0 3F5#00C8180900000000
(1638973129.648066) can0 221#404105050050B1AF
(1638973129.650217) can0 262#0B00D20200F0D212
(1638973129.650218) can0 263#0330219FC123F606
(1638973129.650219) can0 2B3#0A00FF3800000000
(1638973129.650220) can0 13D#00000000FF00
(1638973129.650221) can0 201#0300000000000000
(1638973129.652060) can0 2C1#04C8440300104048
(1638973129.652061) can0 423#000010000000
(1638973129.652061) can0 359#070000007F000000
(1638973129.652062) can0 3E9#F12000000000B0AD
(1638973129.652062) can0 677#FBFFFFFFFFFFFF27
(1638973129.655988) can0 132#2892B9FFAE3FFF0F
(1638973129.655989) can0 2C3#0000009B01008069
(1638973129.655989) can0 6C8#481E008D01000000
(1638973129.655989) can0 129#9E284F20FF1FFF3F
(1638973129.655990) can0 552#000000000000E037
(1638973129.657889) can0 3A2#A503000000000000
(1638973129.657890) can0 2D1#7F01
(1638973129.657891) can0 38A#0300000000000000
(1638973129.657891) can0 13D#00000000FF00
(1638973129.657892) can0 545#020061000000701D
(1638973129.661866) can0 2F3#08080B0400
(1638973129.661867) can0 419#00
(1638973129.661868) can0 2C1#0500000000000000
(1638973129.661868) can0 2E1#FC1BC0FAA9C50A00
(1638973129.661869) can0 422#000010000000
(1638973129.661870) can0 2A8#C20000000000208C
(1638973129.662901) can0 39A#FDFDFDFDFD010002
(1638973129.662903) can0 201#0400000000000000
(1638973129.662903) can0 132#2792AFFF923FFF0F
(1638973129.662904) can0 243#408290A0934E0E29
(1638973129.662905) can0 381#0A00000000000000
(1638973129.664750) can0 3A1#C3FFFF010000D028
(1638973129.664751) can0 207#003E362E27000000
(1638973129.664752) can0 129#0F294F200120FF3F
(1638973129.664752) can0 13D#00000000FF00
(1638973129.664753) can0 421#000A0010000000
(1638973129.668986) can0 677#040F000000000000
(1638973129.668987) can0 2C2#2080009B01008069
(1638973129.668987) can0 3C2#2955000000000000
(1638973129.668988) can0 428#000010100000
(1638973129.668988) can0 43B#027F00FF00000000
(1638973129.670743) can0 34A#0107000000000060
(1638973129.670744) can0 204#010000FF00000010
(1638973129.670744) can0 2C1#0600000040000000
(1638973129.670745) can0 224#0408004019011008
(1638973129.670745) can0 132#1E92AEFFA33FFF0F
(1638973129.672997) can0 225#054552
(1638973129.672998) can0 264#29000000A000
(1638973129.672998) can0 2B4#80ED27C800
(1638973129.672999) can0 2C4#040000000020E14F
(1638973129.672999) can0 129#7D2A4F200020FF3F
(1638973129.674513) can0 247#A30EFF0500BA0000
(1638973129.674513) can0 227#AF03130035000081
(1638973129.674514) can0 2F9#98FB072800000000
(1638973129.674514) can0 201#0500000000000000
(1638973129.674515) can0 261#0010AB005F40801B
(1638973129.678665) can0 2E1#0500000000000000
(1638973129.678666) can0 409#00
(1638973129.678667) can0 1FA#3AC001
(1638973129.678668) can0 263#003AC163E8BCD500
(1638973129.678668) can0 283#2E2800004100
(1638973129.678670) can0 13D#00000000FF00
(1638973129.680600) can0 3E8#0400000000000000
(1638973129.680601) can0 420#2801404B0000
(1638973129.680602) can0 718#03FFFFFFFFFFFF
(1638973129.680602) can0 23E#1DC672E1010238B1
(1638973129.680603) can0 441#DCC54420DB0E38E0
(1638973129.681509) can0 39D#275E012800
(1638973129.681510) can0 3F9#0500000000000000
(1638973129.681511) can0 400#08E0FBBEEFFB00
(1638973129.681512) can0 132#1F92BFFFCC3FFF0F
(1638973129.681513) can0 1FB#00FFFFFFFFFFFFFF
(1638973129.700874) can0 3C0#0200000000000000
(1638973129.700875) can0 666#0000A000
(1638973129.700875) can0 55A#0100000000000000
(1638973129.700876) can0 129#8C2B4F200020FF3F
(1638973129.700876) can0 405#113345374541304B
(1638973129.701119) can0 249#CE0F0000
(1638973129.701121) can0 2C1#0700000000000000
(1638973129.701122) can0 677#05FE3F2700000000
(1638973129.701123) can0 242#1095
(1638973129.701123) can0 7A8#01000000FFA10800
(1638973129.701220) can0 339#5F41020080034006
(1638973129.701221) can0 103#12310000B80C2102
(1638973129.701222) can0 13D#00000000FF00
(1638973129.701222) can0 287#61596965EB021210
(1638973129.701223) can0 201#0600000000000000
(1638973129.705090) can0 39A#3447FF96FFFDFD31
(1638973129.705093) can0 360#0200000000000000
(1638973129.705093) can0 2E1#1021041E94450604
(1638973129.705094) can0 545#60033100ACC68ADA
(1638973129.705095) can0 132#1E92B2FFBE3FFF0F
(1638973129.706287) can0 123#00004212D2000000
(1638973129.706288) can0 243#41016DFF75FF9898
(1638973129.706291) can0 372#026700A50001E37E
(1638973129.706292) can0 719#0100000000000000
(1638973129.706293) can0 129#EC2C4F200020FF3F
(1638973129.707807) can0 228#0316544C5480F1A8
(1638973129.707809) can0 282#9470C2093C64F224
(1638973129.707809) can0 2C1#208E3811911F0000
(1638973129.707810) can0 221#410155000000C07A
(1638973129.707811) can0 3A3#04D0000008
(1638973129.712381) can0 13D#00000000FF00
(1638973129.712383) can0 102#12310000F82A2108
(1638973129.712384) can0 381#0B00000000000000
(1638973129.712385) can0 1F9#000000000000
(1638973129.712385) can0 677#F8FFFFFFFFFFFF3F
(1638973129.714799) can0 6E8#401E008E01000000
(1638973129.714800) can0 281#1100FF1F0001
(1638973129.714802) can0 132#2092ACFFBD3FFF0F
(1638973129.714803) can0 393#0980630000000000
(1638973129.714805) can0 129#972D4F20FF1FFF3F
(1638973129.715609) can0 201#F8661C00C0230300
(1638973129.715610) can0 439#0000002000001301
(1638973129.715611) can0 122#00004212D200
(1638973129.715612) can0 3A2#0000734805004A62
(1638973129.715613) can0 20C#1358340A37013010
(1638973129.719553) can0 263#0134BF64E6BBD302
(1638973129.719555) can0 13D#00000000FF00
(1638973129.719556) can0 2C1#0100001428006400
(1638973129.719558) can0 2E1#290AAB8105000000
(1638973129.719559) can0 261#3148CD00C14A9A2C
(1638973129.721634) can0 273#81E0304018023011
(1638973129.721635) can0 2E8#C2000000000020CC
(1638973129.721636) can0 119#0000
(1638973129.721638) can0 3A1#08620B980058E2DD
(1638973129.721639) can0 132#2892B4FFA73FFF0F
(1638973129.724823) can0 272#0980630000000000
(1638973129.724825) can0 3E3#0000
(1638973129.724826) can0 340#0600000000000000
(1638973129.724827) can0 129#212E4F200020FF3F
(1638973129.724828) can0 77A#0100545D9C5D6C5D
(1638973129.726430) can0 76A#0093CAA402000000
(1638973129.726431) can0 7AA#040010C000190000
(1638973129.726432) can0 78A#0100000000001A13
(1638973129.726433) can0 677#01FFFFFFFFFFFF00
(1638973129.726433) can0 4E3#D50730B103310000
(1638973129.727400) can0 448#000010100000
(1638973129.727401) can0 13D#00000000FF00
(1638973129.727402) can0 201#010063FFFF0F0000
(1638973129.727403) can0 3C2#0055555500005505
(1638973129.727404) can0 23E#1DC672E1050248C5
(1638973129.729507) can0 1F8#3A000000
(1638973129.729509) can0 2C1#02AB835100930000
(1638973129.729510) can0 39D#285F012800
(1638973129.729511) can0 2D2#182FB14E0000A101
(1638973129.729511) can0 212#9804F60F02FF3F02
(1638973129.733403) can0 252#0000D6060000A00F
(1638973129.733404) can0 25B#D3C0020000006050
(1638973129.733404) can0 292#CADEFA6CB30C4A00
(1638973129.733406) can0 243#FEFFE30C04010000
(1638973129.733406) can0 2E3#F7135040010000
(1638973129.735462) can0 2F2#1201
(1638973129.735464) can0 132#1B92AAFFAF3FFF0F
(1638973129.735464) can0 392#000B000000000000
(1638973129.735466) can0 129#B92F4F20FF1FFF3F
(1638973129.735466) can0 39A#FDFDFDFDFD010002
(1638973129.737224) can0 241#3C3C160F8F5500
(1638973129.737225) can0 2E1#0200000000000100
(1638973129.737225) can0 401#0F2A9798A298A498
(1638973129.737226) can0 132#2E92ABFFAA3FFF0F
(1638973129.737227) can0 1FB#01FEFFB76D0B0000
(1638973129.739353) can0 3C3#5555550100000000
(1638973129.739354) can0 677#02FFFFFFFF000000
(1638973129.739354) can0 129#35204F200020FF3F
(1638973129.739355) can0 788#B61E00003D02E302
(1638973129.739356) can0 263#0200000078273200
(1638973129.741514) can0 2B3#0064726D675A4B00
(1638973129.741515) can0 13D#00000000FF00
(1638973129.741515) can0 553#000000000000F048
(1638973129.741517) can0 3DA#0000000000000000
(1638973129.741517) can0 2E1#036D990218440000
(1638973129.742297) can0 4E2#D5074D0102390000
(1638973129.742298) can0 261#56FE28B1925CA400
(1638973129.742299) can0 132#2292B7FFBF3FFF0F
(1638973129.742299) can0 372#0300010000000000
(1638973129.742300) can0 383#7500520008202003
(1638973129.746540) can0 129#4B214F20FF1FFF3F
(1638973129.746541) can0 2C1#04C8430300104048
(1638973129.746542) can0 282#8129140A2A017A00
(1638973129.746544) can0 37A#0000000000000000
(1638973129.746545) can0 288#0316548C54800158
(1638973129.748364) can0 3F5#00C8180900000000
(1638973129.748365) can0 201#0300000000000000
(1638973129.748366) can0 221#404105050050D1CF
(1638973129.748367) can0 262#0B00D20200F0D212
(1638973129.748368) can0 423#000010000000
(1638973129.752312) can0 13D#00000000FF00
(1638973129.752313) can0 677#FBFFFFFFFFFFFF27
(1638973129.752313) can0 359#0800000002000004
(1638973129.752314) can0 39A#3447FF96FFFDFD31
(1638973129.752315) can0 132#2A92ABFFA23FFF0F
(1638973129.754237) can0 243#408290A0934E0E29
(1638973129.754238) can0 2C3#5503A83600001C00
(1638973129.754238) can0 6C8#0100000000000000
(1638973129.754239) can0 129#C6224F200120FF3F
(1638973129.754240) can0 552#000000000000F047
(1638973129.756167) can0 2C1#0500000000000000
(1638973129.756168) can0 2E1#FC1BC02AAAC50A00
(1638973129.756169) can0 3A2#A503000000000000
(1638973129.756170) can0 2D1#7F01
(1638973129.756170) can0 38A#0000000000000000
(1638973129.760069) can0 13D#00000000FF00
(1638973129.760070) can0 545#020064000000A050
(1638973129.760070) can0 23E#1DC672E1050258D5
(1638973129.760072) can0 419#00
(1638973129.760072) can0 201#0400000000000000
(1638973129.760073) can0 39D#1950012800
(1638973129.761910) can0 422#000010000000
(1638973129.761911) can0 2A8#C20000000000309C
(1638973129.761912) can0 3A1#C3FFFF010000F048
(1638973129.761913) can0 132#1F92ADFFAF3FFF0F
(1638973129.761913) can0 129#7C234F200020FF3F
(1638973129.764173) can0 207#0040342E29000000
(1638973129.764174) can0 677#040F000000000000
(1638973129.764175) can0 727#0400
(1638973129.764176) can0 263#0330219FC123F606
(1638973129.764177) can0 13D#00000000FF00
(1638973129.767952) can0 2C1#0600000040000000
(1638973129.767953) can0 421#000A0010000000
(1638973129.767954) can0 2C2#555BA93600001C00
(1638973129.767955) can0 3C2#2955000000000000
(1638973129.767956) can0 453#00000000
(1638973129.769839) can0 284#1000000000
(1638973129.769840) can0 428#000010100000
(1638973129.769840) can0 2E2#07D44F4001000000
(1638973129.769841) can0 748#241C070000
(1638973129.769842) can0 204#010000FF00000010
(1638973129.771891) can0 2C4#2522000000000020
(1638973129.771892) can0 224#0408004019011008
(1638973129.771893) can0 132#2692B5FFCF3FFF0F
(1638973129.771894) can0 225#054552
(1638973129.771894) can0 264#29000000A000
(1638973129.773658) can0 2B4#80F127D000
(1638973129.773659) can0 2E1#0500000000000000
(1638973129.773659) can0 129#FA244F200020FF3F
(1638973129.773661) can0 381#0D00000000000000
(1638973129.773661) can0 201#0500000000000000
(1638973129.777815) can0 399#000000
(1638973129.777817) can0 3C4#1A2D30322D430000
(1638973129.777817) can0 247#A30EFF0500BA0000
(1638973129.777819) can0 227#A903130035000081
(1638973129.777820) can0 261#030000000040B438
(1638973129.779538) can0 2F9#98FB07402FA82020
(1638973129.779539) can0 409#00
(1638973129.779540) can0 1FA#3AC001
(1638973129.779541) can0 283#2E2800004100
(1638973129.779542) can0 3E8#0500000000000000
(1638973129.779542) can0 13D#00000000FF00
(1638973129.781648) can0 420#2801404B0010
(1638973129.781649) can0 718#007F7F7FFFFFFF
(1638973129.781649) can0 441#DCC54420DB0E3CE4
(1638973129.781650) can0 724#040000
(1638973129.781651) can0 2C1#0700000000000000
(1638973129.785587) can0 677#05FE3F2700000000
(1638973129.785588) can0 3F9#0000000000000000
(1638973129.785589) can0 39A#FDFDFDFDFD010002
(1638973129.785591) can0 400#00E0FBBEEFFB00
(1638973129.785592) can0 132#1892AFFFA83FFF0F
(1638973129.787382) can0 1FB#00FFFFFFFFFFFFFF
(1638973129.787383) can0 243#41016DFF75FF9898
(1638973129.787383) can0 3C0#0300000000000000
(1638973129.787385) can0 129#ED254F200020FF3F
(1638973129.787385) can0 249#E8010000
(1638973129.789258) can0 242#1095
(1638973129.789259) can0 7A8#A61E00F03D02E302
(1638973129.789259) can0 339#5F41020080034006
(1638973129.789260) can0 103#12310000B80C2102
(1638973129.789261) can0 13D#00000000FF00
(1638973129.793167) can0 201#0600000000000000
(1638973129.793169) can0 2E1#1021041E94450604
(1638973129.793169) can0 287#61596965EB021210
(1638973129.793170) can0 545#A00335E0ABC9BA30
(1638973129.793171) can0 360#0300000000000000
(1638973129.795239) can0 2C1#208E3811911F0000
(1638973129.795240) can0 132#2692ACFFBE3FFF0F
(1638973129.795241) can0 123#00004212D2000000
(1638973129.795242) can0 372#040048007B465D00
(1638973129.795243) can0 719#0286521C00000000
(1638973129.797291) can0 129#37264F200020FF3F
(1638973129.797292) can0 228#0316544C548001B8
(1638973129.797293) can0 282#9470C2093864F224
(1638973129.797294) can0 677#F8FFFFFFFFFFFF3F
(1638973129.797294) can0 221#410155000000E09A
(1638973129.801137) can0 3A3#04D0000008
(1638973129.801138) can0 263#003AC163E8BCD500
(1638973129.801139) can0 13D#00000000FF00
(1638973129.801140) can0 102#12310000F82A2108
(1638973129.801141) can0 23E#1DC672E1090268E9
(1638973129.803057) can0 1F9#000000000000
(1638973129.803058) can0 3A8#00FF
(1638973129.803059) can0 39D#1A51012800
(1638973129.803060) can0 6E8#0100000000000000
(1638973129.803060) can0 281#1000FF1F0001
(1638973129.803061) can0 201#18671C00C0230300
(1638973129.807009) can0 132#2592B8FFC33FFF0F
(1638973129.807010) can0 393#0600187908C01E20
(1638973129.807011) can0 129#20274F200020FF3F
(1638973129.807013) can0 2C1#0100001428006400
(1638973129.807013) can0 2E1#290AAB8105000000
(1638973129.808103) can0 439#0000002000001301
(1638973129.808104) can0 122#00004212D200
(1638973129.808105) can0 20A#F61509821801
(1638973129.808106) can0 3A2#00E072481D004A62
(1638973129.808106) can0 20C#0F38340A37013010
(1638973129.810148) can0 13D#00000000FF00
(1638973129.810149) can0 261#0010AB005F40C05B
(1638973129.810150) can0 285#61024C0108003800
(1638973129.810151) can0 3D8#7001
(1638973129.810152) can0 353#FB0F3980010ED8E7
(1638973129.813887) can0 2E8#C2000000000030DC
(1638973129.813888) can0 381#0E00000000000000
(1638973129.813888) can0 119#0000
(1638973129.813890) can0 39A#3443FF96FFFDFD31
(1638973129.813890) can0 677#01FFFFFFFFFFFF00
(1638973129.815807) can0 3A1#08620B98005802FD
(1638973129.815808) can0 132#2792B1FFBD3FFF0F
(1638973129.815808) can0 243#FEFFE30C04010000
(1638973129.815809) can0 24A#03
(1638973129.815810) can0 272#0600198908C01E20
(1638973129.817890) can0 340#0700000000000000
(1638973129.817891) can0 129#F7284F200020FF3F
(1638973129.817891) can0 3E3#0000
(1638973129.817892) can0 7AA#0503000D5009D704
(1638973129.817893) can0 78A#010001000000090D
(1638973129.819852) can0 2C1#02AB835100930000
(1638973129.819853) can0 201#010063FFFF0F0000
(1638973129.819853) can0 4E3#00AB040000000800
(1638973129.819855) can0 448#000010100000
(1638973129.819855) can0 13D#00000000FF00
(1638973129.823809) can0 3C2#0055555500005505
(1638973129.823810) can0 1F8#3A000000
(1638973129.823811) can0 2E1#0200000000000100
(1638973129.823812) can0 2D2#182FB14E0000A101
(1638973129.823813) can0 212#9804F60F02FF3F02
(1638973129.825587) can0 252#0000D6060000A00F
(1638973129.825588) can0 132#1D92AAFFBF3FFF0F
(1638973129.825588) can0 292#CADEFA6CB30C4A00
(1638973129.825589) can0 2E3#40000085000B00
(1638973129.825590) can0 25B#D3C0020000007060
(1638973129.827475) can0 2F2#1201
(1638973129.827476) can0 129#A2294F200020FF3F
(1638973129.827477) can0 241#3D3C560F8F5500
(1638973129.827478) can0 545#010000000010C01B
(1638973129.827478) can0 22A#00006917
(1638973129.827479) can0 3E2#401500E0500F00
(1638973129.832218) can0 379#010078809A191601
(1638973129.832220) can0 263#0134BF64E6BBD302
(1638973129.832221) can0 2B3#0161606A5560607B
(1638973129.832222) can0 2C1#0300406600902100
(1638973129.832222) can0 33D#1A290ABE874AFA98
(1638973129.833353) can0 343#00905CEEA8030000
(1638973129.833354) can0 41D#00
(1638973129.833355) can0 13D#00000000FF00
(1638973129.833356) can0 37D#4CFF4AFFFFFF0700
(1638973129.833356) can0 53E#1100000000000000
(1638973129.835463) can0 3C8#0000000000000000
(1638973129.835465) can0 3DD#0037004B0006
(1638973129.835465) can0 201#EA0F40C104C01001
(1638973129.835467) can0 21D#0400B40000000000
(1638973129.835467) can0 25D#C74801CC406101C0
(1638973129.838282) can0 43D#00000000FF00
(1638973129.838283) can0 27D#0000000000000000
(1638973129.838283) can0 129#7D2A4F200020FF3F
(1638973129.838285) can0 2D7#4008
(1638973129.838285) can0 229#8C0B00
(1638973129.838286) can0 7FF#0500000020000000
(1638973129.839356) can0 249#2A020000
(1638973129.839357) can0 318#150C300E08120397
(1638973129.839357) can0 54F#0000000000000000
(1638973129.839358) can0 458#02020080000000
(1638973129.839359) can0 2F1#0C05605900953030
(1638973129.841427) can0 2E1#036D990218440000
(1638973129.841429) can0 788#50FD116400008010
(1638973129.841429) can0 553#0000000000000058
(1638973129.841431) can0 13D#00000000FF00
(1638973129.841431) can0 23E#1DC672E1010278F1
(1638973129.845264) can0 3DA#0000000000000000
(1638973129.845266) can0 39D#1B52012800
(1638973129.845266) can0 261#31489300BF4ADA30
(1638973129.845268) can0 39A#FDFDFDFDFD010002
(1638973129.845268) can0 132#1B92ADFFAE3FFF0F
(1638973129.847371) can0 243#408290A0934E0E29
(1638973129.847372) can0 372#0500C2FF474BDFFF
(1638973129.847373) can0 383#7500520008202003
(1638973129.847375) can0 129#8C2B4F200020FF3F
(1638973129.847375) can0 201#0300000000000000
(1638973129.851169) can0 677#FBFFFFFFFFFFFF27
(1638973129.851170) can0 282#8129148A10017A00
(1638973129.851171) can0 37A#0100000000000000
(1638973129.851172) can0 288#0316548C54801168
(1638973129.851172) can0 3F5#00C8180900000000
(1638973129.852167) can0 221#404105050050F1EF
(1638973129.852168) can0 359#0900000000000000
(1638973129.852168) can0 2C1#0500000000000000
(1638973129.852169) can0 2E1#FC1BBE3AAAC90A00
(1638973129.852169) can0 132#2A92A8FFBE3FFF0F
(1638973129.854214) can0 2C3#0000009B01008069
(1638973129.854215) can0 6C8#481E008D01000000
(1638973129.854215) can0 129#EC2C4F200020FF3F
(1638973129.854217) can0 552#0000000000000057
(1638973129.854217) can0 3A2#A703000000000000
(1638973129.856168) can0 2D1#7F01
(1638973129.856169) can0 545#020065000000D081
(1638973129.856170) can0 38A#0100000000000000
(1638973129.856171) can0 263#0200000078273200
(1638973129.856172) can0 13D#00000000FF00
(1638973129.860035) can0 201#0400000000000000
(1638973129.860036) can0 313#0264640100007051
(1638973129.860037) can0 2D3#DE001B0208B00C6A
(1638973129.860038) can0 677#040F000000000000
(1638973129.860039) can0 419#00
(1638973129.862057) can0 285#02D2000000000200
(1638973129.862059) can0 422#000010000000
(1638973129.862060) can0 2A8#C2000000000040AC
(1638973129.862061) can0 3A1#C3FFFF0100001068
(1638973129.862063) can0 132#2392B3FFC43FFF0F
(1638973129.863027) can0 129#FE2D4F200020FF3F
(1638973129.863028) can0 2C1#0600000040000000
(1638973129.863028) can0 207#0042362E29000000
(1638973129.863029) can0 13D#00000000FF00
(1638973129.863030) can0 2E1#0500000000000000
(1638973129.867091) can0 421#000A0010000000
(1638973129.867092) can0 2C2#2080009B01008069
(1638973129.867093) can0 3C2#2955000000000000
(1638973129.867094) can0 428#000010100000
(1638973129.867094) can0 39A#3447FB96FFFDFD31
(1638973129.868980) can0 2C4#0664A28CCA780D00
(1638973129.868981) can0 201#0500000000000000
(1638973129.868981) can0 204#010000FF00000010
(1638973129.868982) can0 132#1A92ABFFB33FFF0F
(1638973129.868983) can0 224#0408004019011008
(1638973129.871012) can0 225#054552
(1638973129.871013) can0 243#41016DFF75FF9898
(1638973129.871014) can0 264#2A000000A000
(1638973129.871015) can0 129#212E4F200020FF3F
(1638973129.871015) can0 2B4#80ED27D000
(1638973129.874873) can0 261#56FE28B1925CE440
(1638973129.874874) can0 247#A20EFF0500BA0000
(1638973129.874874) can0 227#A403120035000081
(1638973129.874875) can0 2F9#98FB07482FA82020
(1638973129.874876) can0 2C1#0700000000000000
(1638973129.877022) can0 677#05FE3F2700000000
(1638973129.877023) can0 409#00
(1638973129.877025) can0 1FA#3AC001
(1638973129.877025) can0 283#2E2800004100
(1638973129.877026) can0 3E8#0000000000000000
(1638973129.877027) can0 13D#00000000FF00
(1638973129.878834) can0 420#2801404B0020
(1638973129.878835) can0 718#02FFFFFFFFFFFF
(1638973129.878837) can0 23E#1DC672E101028801
(1638973129.878838) can0 441#DCC54420DB0E00A8
(1638973129.878839) can0 39D#1C53012800
(1638973129.882746) can0 3F9#0100000000000000
(1638973129.882747) can0 400#08E0FBBEEFFB00
(1638973129.882747) can0 132#1C92A7FFA03FFF0F
(1638973129.882749) can0 1FB#00FFFFFFFFFFFFFF
(1638973129.882749) can0 3C0#0400000000000000
(1638973129.884673) can0 129#D02F4F200020FF3F
(1638973129.884674) can0 249#D3030000
(1638973129.884674) can0 2E1#1021041E94450604
(1638973129.884675) can0 381#1000000000000000
(1638973129.884676) can0 242#1095
(1638973129.886632) can0 7A8#50F5016400004010
(1638973129.886633) can0 201#0600000000000000
(1638973129.886634) can0 339#5F41020080034006
(1638973129.886635) can0 103#12310000B80C2102
(1638973129.886635) can0 263#0330219FC123F606
(1638973129.889682) can0 2C1#208E3811911F0000
(1638973129.889683) can0 13D#00000000FF00
(1638973129.889684) can0 287#61596965EB021210
(1638973129.889686) can0 545#F0033600ACCAEAD3
(1638973129.889686) can0 360#0400000000000000
(1638973129.891644) can0 677#F8FFFFFFFFFFFF3F
(1638973129.891645) can0 132#2192B8FFCF3FFF0F
(1638973129.891645) can0 123#00004212D2000000
(1638973129.891647) can0 372#060047006E3B7D00
(1638973129.891647) can0 719#0100000000000000
(1638973129.893543) can0 129#35204F200020FF3F
(1638973129.893544) can0 228#0316544C548011C8
(1638973129.893544) can0 282#9470B2093C64F224
(1638973129.893545) can0 221#41015500000000BA
(1638973129.893546) can0 3A3#04D0000008
(1638973129.897338) can0 13D#00000000FF00
(1638973129.897339) can0 102#12310000F82A2108
(1638973129.897340) can0 1F9#000000000000
(1638973129.897341) can0 2C1#0100001428006400
(1638973129.897342) can0 201#18671C00C0230300
(1638973129.899692) can0 2E1#290AAB8105000000
(1638973129.899693) can0 39A#FDFDFDFDFD010002
(1638973129.899693) can0 6E8#401E008E01000000
(1638973129.899695) can0 281#0F00FF1F0001
(1638973129.899695) can0 132#1C92ADFFBF3FFF0F
(1638973129.901305) can0 243#FEFFE30C04010000
(1638973129.901306) can0 393#0980630000000000
(1638973129.901307) can0 129#8F214F200120FF3F
(1638973129.901308) can0 439#0000002000001301
(1638973129.901308) can0 122#00004212D200
(1638973129.905261) can0 3A2#00C0F2451D004A62
(1638973129.905262) can0 261#030000000040F478
(1638973129.905262) can0 20C#0C38340A37013010
(1638973129.905264) can0 13D#00000000FF00
(1638973129.905264) can0 677#01FFFFFFFFFFFF00
(1638973129.907161) can0 293#010C559155153426
(1638973129.907163) can0 253#6B086464085502
(1638973129.907163) can0 2E8#C2000000000040EC
(1638973129.907164) can0 285#037C955C86000000
(1638973129.907165) can0 119#0000
(1638973129.908963) can0 2C1#02AB835100930000
(1638973129.908963) can0 3A1#08620B980058221D
(1638973129.908964) can0 132#1D92AEFFC33FFF0F
(1638973129.908965) can0 272#0980630000000000
(1638973129.908965) can0 3E3#0000
(1638973129.911994) can0 340#0800000000000000
(1638973129.911995) can0 129#6B224F200020FF3F
(1638973129.911996) can0 201#010063FFFF0F0000
(1638973129.911997) can0 78A#010002000000785D
(1638973129.911997) can0 307#000000000000003C
(1638973129.914581) can0 319#1F0000004BCC3583
(1638973129.914582) can0 2E1#0200000000000100
(1638973129.914582) can0 4E3#018B040400000800
(1638973129.914584) can0 263#003AC163E8BCD500
(1638973129.914584) can0 13D#00000000FF00
(1638973129.917094) can0 2B3#921B16BD03463C00
(1638973129.917095) can0 448#000010100000
(1638973129.917095) can0 3C2#0055555500005505
(1638973129.917096) can0 23E#1DC672E105029815
(1638973129.917097) can0 1F8#3A000000
(1638973129.918112) can0 39D#1D54012800
(1638973129.918113) can0 381#1100000000000000
(1638973129.918114) can0 2D2#182FB14E0000A101
(1638973129.918115) can0 212#9804F60F02FF3F02
(1638973129.918115) can0 252#0000D6060000A00F
(1638973129.920054) can0 25B#D3C0020000008070
(1638973129.920055) can0 292#CADEFA6CB30C4A00
(1638973129.920056) can0 2E3#0100008E001B00
(1638973129.920056) can0 2F2#1201
(1638973129.920057) can0 3DB#0300000000004402
(1638973129.922052) can0 132#2992B7FFCC3FFF0F
(1638973129.922053) can0 320#0100000800000000
(1638973129.922054) can0 129#7C234F200020FF3F
(1638973129.922054) can0 43B#037F00FF00000000
(1638973129.922055) can0 241#3D3C560F8F5500
(1638973129.925874) can0 2C1#0300406600902100
(1638973129.925876) can0 545#010000000010F04B
(1638973129.925876) can0 677#02FFFFFFFF000000
(1638973129.925877) can0 772#012A480334036603
(1638973129.925877) can0 22A#00006917
(1638973129.927968) can0 3E2#401500E0500F00
(1638973129.927969) can0 379#020078809A191601
(1638973129.927970) can0 343#00905CDEA8030000
(1638973129.927971) can0 41D#00
(1638973129.927971) can0 201#EA0FC0C004C01001
(1638973129.929718) can0 21D#0400B40000000000
(1638973129.929719) can0 43D#00000000FF00
(1638973129.929719) can0 718#03FFFFFFFFFFFF
(1638973129.929720) can0 13D#00000000FF00
(1638973129.929720) can0 25D#C74801CC406101C0
(1638973129.933710) can0 27D#0000000000000000
(1638973129.933711) can0 3C8#0100000000000000
(1638973129.933711) can0 29D#00000020
(1638973129.933712) can0 77D#110000
(1638973129.933712) can0 2BD#00000000
(1638973129.933713) can0 7DD#FF0001
(1638973129.935611) can0 39A#3447FB96FFFDFD31
(1638973129.935612) can0 113#019701
(1638973129.935613) can0 2E1#036D990218440000
(1638973129.935613) can0 132#2492AEFF8F3FFF0F
(1638973129.935613) can0 1FB#01FEFFB76D0B0000
(1638973129.937677) can0 243#408290A0934E0E29
(1638973129.937678) can0 3C3#5555550100000000
(1638973129.937679) can0 2D7#4008
(1638973129.937679) can0 249#D3040000
(1638973129.937680) can0 318#150C310E0812059A
(1638973129.940931) can0 54F#0000000000000000
(1638973129.940932) can0 458#02020080000000
(1638973129.940933) can0 553#0000000000001068
(1638973129.940933) can0 13D#00000000FF00
(1638973129.940934) can0 3DA#0000000000000000
(1638973129.942819) can0 677#FBFFFFFFFFFFFF27
(1638973129.942820) can0 261#0010AB005F40009B
(1638973129.942821) can0 4E2#01FF04FF0F000800
(1638973129.942821) can0 201#0300000000000000
(1638973129.942821) can0 132#1C92A6FF7F3FFF0F
(1638973129.943615) can0 372#070087FF594ADCFF
(1638973129.943616) can0 383#7500520008202003
(1638973129.943616) can0 129#ED254F200020FF3F
(1638973129.943617) can0 282#8129140A4C017A00
(1638973129.943617) can0 37A#0200000000000000
(1638973129.947585) can0 288#0316544C54802138
(1638973129.947586) can0 3F5#00C8180900000000
(1638973129.947586) can0 221#404105050050110F
(1638973129.947587) can0 262#0B00D20200F0D212
(1638973129.947587) can0 263#0134BF64E6BBD302
(1638973129.949562) can0 423#000010000000
(1638973129.949563) can0 13D#00000000FF00
(1638973129.949564) can0 2C1#0500000000000000
(1638973129.949564) can0 2E1#FC1BC03AAAC50A00
(1638973129.949565) can0 359#0A000000A054E025
(1638973129.951678) can0 132#2992B0FF9E3FFF0F
(1638973129.951679) can0 2C3#5503A83600001C00
(1638973129.951680) can0 387#2F3933313B2B0030
(1638973129.951680) can0 6C8#0100000000000000
(1638973129.951680) can0 129#37264F200020FF3F
(1638973129.954618) can0 552#0000000000001067
(1638973129.954619) can0 201#0400000000000000
(1638973129.954620) can0 545#02005F00000000AB
(1638973129.954620) can0 3A2#A703000000000000
(1638973129.954621) can0 677#040F000000000000
(1638973129.956873) can0 2D1#7F01
(1638973129.956874) can0 38A#0300000000000000
(1638973129.956875) can0 13D#00000000FF00
(1638973129.956875) can0 381#12F0FFFF00007001
(1638973129.956876) can0 23E#1DC672E10502A825
(1638973129.956876) can0 213#5065
(1638973129.958652) can0 082#00FE008000800080
(1638973129.958653) can0 419#00
(1638973129.958654) can0 2C1#0600000040000000
(1638973129.958654) can0 39D#1E55012800
(1638973129.958655) can0 422#000010000000
(1638973129.958655) can0 2A8#C2000000000050BC
(1638973129.961785) can0 39A#FDFDFDFDFD010002
(1638973129.961786) can0 3A1#C3FFFF0100003088
(1638973129.961787) can0 132#1192AAFF823FFF0F
(1638973129.961787) can0 243#41016DFF75FF9898
(1638973129.961788) can0 129#20274F200020FF3F
(1638973129.964107) can0 2E1#0500000000000000
(1638973129.964109) can0 207#0042362D28000000
(1638973129.964110) can0 744#00
(1638973129.964111) can0 743#00
(1638973129.964112) can0 13D#00000000FF00
(1638973129.964112) can0 421#000A0010000000
(1638973129.967546) can0 2C2#555BA93600001C00
(1638973129.967547) can0 3C2#2955000000000000
(1638973129.967548) can0 428#000010100000
(1638973129.967549) can0 201#0500000000000000
(1638973129.967550) can0 2E2#0000007A000B0000
(1638973129.969425) can0 2C4#E705B194810C2007
(1638973129.969426) can0 204#010000FF00000010
(1638973129.969426) can0 2C1#0700000000000000
(1638973129.969427) can0 132#1D92A4FF8C3FFF0F
(1638973129.969427) can0 224#0408004019011008
(1638973129.971475) can0 225#054552
(1638973129.971477) can0 261#31487F00BF4A1A5C
(1638973129.971478) can0 264#29000000A000
(1638973129.971479) can0 129#F7284F200020FF3F
(1638973129.971479) can0 2B4#80F127CA00
(1638973129.973406) can0 677#05FE3F2700000000
(1638973129.973407) can0 247#A20EFF0500BA0000
(1638973129.973407) can0 227#9B03120035000081
(1638973129.973408) can0 2F9#98FB071000000000
(1638973129.973408) can0 409#00
(1638973129.973409) can0 1FA#3AC001
(1638973129.977244) can0 283#2E2800004100
(1638973129.977245) can0 263#0200000078273200
(1638973129.977245) can0 13D#00000000FF00
(1638973129.977246) can0 3E8#0100000000000000
(1638973129.977246) can0 420#2801404B0030
(1638973129.978287) can0 718#04FFFF00000000
(1638973129.978288) can0 441#DCC54420DB0E04AC
(1638973129.978289) can0 321#6CA9A55A025860F2
(1638973129.978289) can0 2E1#1021041E94450604
(1638973129.978290) can0 3F9#0200000000000000
(1638973129.979370) can0 400#00E0FBBEEFFB00
(1638973129.979371) can0 132#1F92B1FF9E3FFF0F
(1638973129.979372) can0 1FB#00FFFFFFFFFFFFFF
(1638973129.979372) can0 3C0#0500000000000000
(1638973129.979372) can0 129#A2294F200020FF3F
(1638973129.983366) can0 249#83050000
(1638973129.983367) can0 2C1#208E3811911F0000
(1638973129.983367) can0 201#0600000000000000
(1638973129.983368) can0 242#1095
(1638973129.983368) can0 7A8#01000000FFA10800
(1638973129.985238) can0 339#5F41020080034006
(1638973129.985239) can0 103#12310000B80C2102
(1638973129.985239) can0 677#F8FFFFFFFFFFFF3F
(1638973129.985240) can0 13D#00000000FF00
(1638973129.985240) can0 545#60033100ACCA1A6E
(1638973129.987290) can0 287#61596965EB021210
(1638973129.987291) can0 39A#3847FB96FFFDFD31
(1638973129.987292) can0 360#0500000000000000
(1638973129.987292) can0 132#1D92AAFF9D3FFF0F
(1638973129.987292) can0 123#00004212D2000000
(1638973129.990212) can0 243#FEFFEB0C04010000
(1638973129.990213) can0 372#0800000000000000
(1638973129.990213) can0 719#0286521C00000000
(1638973129.990214) can0 129#7D2A4F200020FF3F
(1638973129.990214) can0 228#0316544C548021D8
(1638973129.991274) can0 282#9470C2093C64F224
(1638973129.991275) can0 381#336400CC35000000
(1638973129.991276) can0 2C1#0100001428006400
(1638973129.991276) can0 221#41015500000020DA
(1638973129.991277) can0 2E1#290AAB8105000000
(1638973129.993394) can0 3A3#04D0000008
(1638973129.993395) can0 13D#00000000FF00
(1638973129.993395) can0 201#F8661C00C0230300
(1638973129.993396) can0 102#12310000F82A2108
(1638973129.993396) can0 23E#1CC672E10102B830
(1638973129.997142) can0 1F9#000000000000
(1638973129.997143) can0 39D#1F56012800
(1638973129.997143) can0 6E8#0100000000000000
(1638973129.997144) can0 281#0E00FF1F0001
(1638973129.997144) can0 132#2492A5FFB43FFF0F
(1638973129.999181) can0 393#0600187908C01E20
(1638973129.999182) can0 129#8C2B4F200020FF3F
(1638973129.999182) can0 677#01FFFFFFFFFFFF00
(1638973129.999183) can0 439#0000002000001301
(1638973129.999183) can0 122#00004212D200
(1638973130.001041) can0 261#56FE28B1925C2480
(1638973130.001042) can0 3A2#0000F34B1D004A62
(1638973130.001042) can0 20C#0938340A37013010
(1638973130.001043) can0 263#0330219FC123F606
(1638973130.001043) can0 13D#00000000FF00
(1638973130.004872) can0 2B3#034444EA00500000
(1638973130.004873) can0 2C1#02AB835100930000
(1638973130.004873) can0 2E8#C2000000000050FC
(1638973130.004874) can0 119#0000
(1638973130.004874) can0 201#010062FFFF0F0000
(1638973130.006993) can0 2E1#0200000000000100
(1638973130.006994) can0 132#2692B5FFCA3FFF0F
(1638973130.006994) can0 272#0600197908C01E20
(1638973130.006995) can0 3A1#08620B980058423D
(1638973130.006995) can0 340#0000000000000000
(1638973130.008834) can0 3E3#0000
(1638973130.008835) can0 129#EC2C4F200020FF3F
(1638973130.008836) can0 76A#0093CAA402000000
(1638973130.008836) can0 7AA#D6FD9F1C40AEAD02
(1638973130.008837) can0 78A#010003000000745E
(1638973130.012991) can0 4E3#02F9070000000800
(1638973130.012992) can0 448#000010100000
(1638973130.012992) can0 13D#00000000FF00
(1638973130.012993) can0 3C2#0055555500005505
(1638973130.012993) can0 1F8#3A000000
(1638973130.014723) can0 2C1#0300406600A02100
(1638973130.014723) can0 677#02FFFFFFFF000000
(1638973130.014724) can0 2D2#182FB14E0000A101
(1638973130.014724) can0 212#9804F60F02FF3F02
(1638973130.014725) can0 252#0000D6060000A00F
(1638973130.017057) can0 292#CADEFA6CB30C4A00
(1638973130.017058) can0 132#2C92ADFFB93FFF0F
(1638973130.017059) can0 243#408290A0934E0E29
(1638973130.017059) can0 2E3#0200008E001B00
(1638973130.017060) can0 25B#D3C0020000009080
(1638973130.021008) can0 2F2#1201
(1638973130.021009) can0 39A#FDFDFDFDFD010002
(1638973130.021009) can0 129#FE2D4F200020FF3F
(1638973130.021010) can0 545#010000000010207B
(1638973130.021010) can0 241#3C3C160F8F5500
(1638973130.022600) can0 7E8#1100000000000000
(1638973130.022601) can0 22A#00006917
(1638973130.022601) can0 201#EA0FC0C004C01001
(1638973130.022601) can0 3E2#401500E0500F00
(1638973130.022602) can0 379#032086809AB91D01
(1638973130.024825) can0 343#0090584EA9410000
(1638973130.024826) can0 75D#9A03229003260000
(1638973130.024826) can0 2E1#036D990218440000
(1638973130.024827) can0 21D#0400B40000000000
(1638973130.024827) can0 718#007F7F7FFFFFFF
(1638973130.027542) can0 13D#00000000FF00
(1638973130.027543) can0 25D#C74801CC406101C0
(1638973130.027543) can0 27D#0000000000000000
(1638973130.027544) can0 3C8#0200000000000000
(1638973130.027544) can0 29D#00000020
(1638973130.027544) can0 41D#00
(1638973130.029499) can0 2BD#00000000
(1638973130.029500) can0 43D#00000000FF00
(1638973130.029500) can0 77D#110000
(1638973130.029501) can0 7DD#FF0001
(1638973130.029501) can0 113#019701
(1638973130.029501) can0 2C1#04C83F0300104048
(1638973130.031591) can0 132#1692A4FF7F3FFF0F
(1638973130.031592) can0 1FB#01FEFFB76D0B0000
(1638973130.031593) can0 381#1400000000000000
(1638973130.031593) can0 3C3#0000000000550000
(1638973130.031593) can0 7FF#02023628DC4D9120
(1638973130.035465) can0 129#212E4F200020FF3F
(1638973130.035466) can0 139#00
(1638973130.035467) can0 229#2F0D00
(1638973130.035468) can0 2D7#4008
(1638973130.035469) can0 249#4C060000
(1638973130.035469) can0 318#150C310E0812079C
(1638973130.037454) can0 54F#0000000000000000
(1638973130.037455) can0 458#02020080000000
(1638973130.037455) can0 2F1#2E0080254400A804
(1638973130.037456) can0 677#FBFFFFFFFFFFFF27
(1638973130.037456) can0 788#B61E00004DB8E002
(1638973130.040270) can0 263#003AC163E8BCD500
(1638973130.040271) can0 553#0000000000002078
(1638973130.040271) can0 13D#00000000FF00
(1638973130.040272) can0 23E#1CC672E10102C840
(1638973130.040272) can0 261#03000000004034B8
(1638973130.042371) can0 3DA#0000000000000000
(1638973130.042373) can0 201#0300000000000000
(1638973130.042373) can0 4E2#0246040000000800
(1638973130.042374) can0 39D#2057012800
(1638973130.042374) can0 132#2692B6FFAD3FFF0F
(1638973130.044415) can0 372#0900000000000000
(1638973130.044416) can0 383#7500520008202003
(1638973130.044417) can0 129#D02F4F200020FF3F
(1638973130.044417) can0 2C1#0500000000000000
(1638973130.044418) can0 2E1#FC1BC04AAAC50A00
(1638973130.046210) can0 282#8129148A42017A00
(1638973130.046211) can0 37A#0000000000000000
(1638973130.046212) can0 288#0316548C54803188
(1638973130.046212) can0 3F5#00C8180900000000
(1638973130.046213) can0 221#404105050050312F
(1638973130.050184) can0 262#0B00D20200F0D212
(1638973130.050185) can0 423#000010000000
(1638973130.050186) can0 13D#00000000FF00
(1638973130.050186) can0 359#0B0000007F000000
(1638973130.050187) can0 39A#3847FB96FFFDFD31
(1638973130.052161) can0 677#040F000000000000
(1638973130.052162) can0 132#1E92ACFF8F3FFF0F
(1638973130.052163) can0 2C3#0000009B01008069
(1638973130.052163) can0 243#41016DFF75FF9898
(1638973130.052163) can0 6C8#481E008D01000000
(1638973130.054073) can0 129#35204F200020FF3F
(1638973130.054074) can0 201#0400000000000000
(1638973130.054075) can0 552#0000000000002077
(1638973130.054075) can0 545#02005800000030D4
(1638973130.054076) can0 2C1#0600000040000000
(1638973130.057040) can0 3A2#A503000000000000
(1638973130.057041) can0 2D1#7F01
(1638973130.057041) can0 38A#0000000000000000
(1638973130.057042) can0 13D#00000000FF00
(1638973130.057042) can0 419#00
(1638973130.057043) can0 2E1#0500000000000000
(1638973130.057973) can0 473#30000000770DB261
(1638973130.057973) can0 3B3#8080052001005000
(1638973130.057974) can0 422#000010000000
(1638973130.057974) can0 2A8#C2000000000060CC
(1638973130.057975) can0 3A1#C3FFFF01000050A8
(1638973130.059960) can0 132#2392A8FF823FFF0F
(1638973130.059961) can0 3C9#0500000000000000
(1638973130.059962) can0 129#22214F200020FF3F
(1638973130.059962) can0 207#0040382E28000000
(1638973130.059963) can0 263#0134BF64E6BBD302
(1638973130.064025) can0 13D#00000000FF00
(1638973130.064026) can0 201#0500000000000000
(1638973130.064027) can0 2C1#0700000000000000
(1638973130.064027) can0 2C2#2080009B01008069
(1638973130.064027) can0 3C2#2955000000000000
(1638973130.065840) can0 381#F57FFF03602C0000
(1638973130.065841) can0 421#000A0010000000
(1638973130.065841) can0 428#000010100000
(1638973130.065842) can0 677#05FE3F2700000000
(1638973130.065842) can0 2C4#08B301510D761600
(1638973130.067852) can0 204#010000FF00000010
(1638973130.067853) can0 261#0010AA005F4040DA
(1638973130.067854) can0 132#2792B1FFA23FFF0F
(1638973130.067854) can0 224#0408004019011008
(1638973130.067855) can0 225#054552
(1638973130.071791) can0 264#28000000A000
(1638973130.071792) can0 2B4#80F127CC00
(1638973130.071793) can0 129#6B224F200020FF3F
(1638973130.071793) can0 247#A30EFF0500BA0000
(1638973130.071794) can0 227#9503110035000081
(1638973130.073756) can0 2F9#98FB071800000000
(1638973130.073757) can0 2E1#1021041E94450604
(1638973130.073757) can0 409#00
(1638973130.073758) can0 420#2801404B0040
(1638973130.073758) can0 1FA#3AC001
(1638973130.073759) can0 283#2E2800004100
(1638973130.074739) can0 3E8#0200000000000000
(1638973130.074740) can0 13D#00000000FF00
(1638973130.074740) can0 718#01FFFFFFFFFF00
(1638973130.074741) can0 23E#1CC672E10502D854
(1638973130.074741) can0 441#DCC54420DB0E08B0
(1638973130.079298) can0 2C1#208E3811911F0000
(1638973130.079299) can0 39D#2158012800
(1638973130.079300) can0 3F9#0300000000000000
(1638973130.079300) can0 39A#FDFDFDFDFD010002
(1638973130.079301) can0 400#00E0FBBEEFFB00
(1638973130.081108) can0 201#0600000000000000
(1638973130.081109) can0 132#1A92AAFF833FFF0F
(1638973130.081109) can0 1FB#00FFFFFFFFFFFFFF
(1638973130.081109) can0 243#FEFFEB0C04010000
(1638973130.081110) can0 3C0#0600000000000000
(1638973130.084974) can0 129#7C234F200020FF3F
(1638973130.084975) can0 249#5E070000
(1638973130.084976) can0 677#F8FFFFFFFFFFFF3F
(1638973130.084976) can0 242#1095
(1638973130.084977) can0 7A8#AA1E00F04DB8E002
(1638973130.087061) can0 339#5F41020080034006
(1638973130.087062) can0 103#12310000B80C2102
(1638973130.087063) can0 545#600336C0ABC64A5E
(1638973130.087063) can0 13D#00000000FF00
(1638973130.087064) can0 287#61596965EB021210
(1638973130.088988) can0 360#0600000000000000
(1638973130.088989) can0 2C1#0100001428006400
(1638973130.088989) can0 2E1#290AAB8105000000
(1638973130.088990) can0 132#2592A4FF8E3FFF0F
(1638973130.088990) can0 123#00004212D2000000
(1638973130.089861) can0 372#0A19A2D1896AA202
(1638973130.089861) can0 719#0100000000000000
(1638973130.089862) can0 129#FA244F200020FF3F
(1638973130.089862) can0 228#0316544C548031E8
(1638973130.089863) can0 282#9470B2093864F224
(1638973130.093930) can0 201#18671C00C0230300
(1638973130.093931) can0 221#41015500000040FA
(1638973130.093931) can0 3A3#04D0000008
